!Agilent Technologies,E8362C,MY49020356,A.09.42.23
!Agilent E8362C: A.09.42.23
!Date: Friday, November 08, 2024 19:07:06
!Correction: S11(Full 2 Port(1,2)) 
!S21(Full 2 Port(1,2)) 
!S12(Full 2 Port(1,2)) 
!S22(Full 2 Port(1,2)) 
!S2P File: Measurements: S11, S21, S12, S22:
# Hz S  RI   R 50
8010000000 -0.023621162 -0.0052923174 0.28937855 -0.94975787 0.29098013 -0.94858128 -0.022279013 -0.0092524914
8014987500 -0.024783922 -0.0041734008 0.24266183 -0.96301144 0.24465904 -0.96216571 -0.023785239 -0.0085281692
8019975000 -0.026043521 -0.0029490402 0.19478883 -0.97334307 0.19715342 -0.97286969 -0.025103034 -0.0073191863
8024962500 -0.026685501 -0.0018915683 0.14803645 -0.98180687 0.14954123 -0.98115373 -0.026395934 -0.0061561116
8029950000 -0.027533203 -0.00032413748 0.10045084 -0.98750299 0.10296866 -0.98708022 -0.027461397 -0.0049652345
8034937500 -0.027990887 0.00076943066 0.05376976 -0.99129432 0.055433497 -0.99063051 -0.028391682 -0.0033167766
8039925000 -0.028239673 0.0022286603 0.0066024722 -0.99294412 0.0082918359 -0.99237055 -0.029091677 -0.0016195257
8044912500 -0.028627113 0.0033923658 -0.041123234 -0.9923473 -0.039387893 -0.99140459 -0.029309696 0.00010167825
8049900000 -0.028854147 0.0045227618 -0.088616081 -0.98885626 -0.087255053 -0.98853642 -0.029224984 0.0016090912
8054887500 -0.028972965 0.0060780421 -0.13723671 -0.98409504 -0.13554503 -0.9834491 -0.02916717 0.0028152282
8059875000 -0.028741309 0.0078641223 -0.18406704 -0.97625732 -0.18213744 -0.97576213 -0.028829269 0.0041685174
8064862500 -0.028411852 0.0093754269 -0.23095788 -0.96573043 -0.22880092 -0.9660235 -0.028620807 0.0052280999
8069850000 -0.028072182 0.010897506 -0.27665082 -0.95348316 -0.27386078 -0.95373267 -0.028286127 0.0061274213
8074837500 -0.027362477 0.012754043 -0.32103533 -0.93966365 -0.31841412 -0.93991256 -0.028099015 0.0072521348
8079825000 -0.026594104 0.014168136 -0.36519083 -0.92328233 -0.36254838 -0.92383444 -0.027802527 0.0081118522
8084812500 -0.025608458 0.015853425 -0.40889004 -0.90493852 -0.40669936 -0.90523374 -0.027431861 0.0091625461
8089800000 -0.024511598 0.017237447 -0.45164961 -0.88467163 -0.44952875 -0.88493937 -0.02714486 0.010250068
8094787500 -0.023463961 0.018522786 -0.49342307 -0.862207 -0.49139908 -0.86240375 -0.026788864 0.011431139
8099775000 -0.022311246 0.019595493 -0.53374237 -0.83727646 -0.53181887 -0.83810914 -0.026311263 0.01263718
8104762500 -0.021137754 0.020536099 -0.57219213 -0.81157333 -0.57059318 -0.81192666 -0.025643216 0.013898934
8109750000 -0.019916622 0.021287471 -0.6096682 -0.78408384 -0.60786074 -0.78413111 -0.02484902 0.015171993
8114737500 -0.018628396 0.021881744 -0.64618671 -0.7542153 -0.64414024 -0.75484741 -0.023734136 0.016466061
8119725000 -0.017308289 0.022268031 -0.68132412 -0.72288287 -0.67895967 -0.7235415 -0.022484567 0.017596278
8124712500 -0.016234538 0.022663087 -0.71491289 -0.68986142 -0.71293789 -0.69057286 -0.021137012 0.018371195
8129700000 -0.014756275 0.023100115 -0.74719787 -0.65476441 -0.7449497 -0.65607733 -0.019577244 0.019111447
8134687500 -0.01330236 0.023184277 -0.77691823 -0.61900091 -0.77495694 -0.62001812 -0.018207159 0.019467976
8139675000 -0.011870368 0.023201613 -0.80476707 -0.58174372 -0.80304998 -0.58370674 -0.016558427 0.019608244
8144662500 -0.010408843 0.023058882 -0.83125281 -0.54355538 -0.82915998 -0.54536921 -0.015041113 0.019671373
8149650000 -0.0088336719 0.022695601 -0.85560453 -0.50410241 -0.8540284 -0.50605845 -0.013583818 0.019433627
8154637500 -0.0071878857 0.022214701 -0.87825972 -0.46335536 -0.87678427 -0.4655003 -0.012198507 0.019092353
8159625000 -0.0056090369 0.021521596 -0.89939934 -0.42203295 -0.89749467 -0.42379984 -0.010823404 0.018652765
8164612500 -0.0040771961 0.020675942 -0.91806406 -0.37953925 -0.91610175 -0.38124123 -0.0096262498 0.018053727
8169600000 -0.0026761666 0.019814987 -0.93475527 -0.33591658 -0.93324101 -0.33788037 -0.0085905362 0.017422253
8174587500 -0.0013327099 0.018790586 -0.94980192 -0.29256091 -0.94808221 -0.29406938 -0.0075774165 0.016769206
8179575000 -0.00017533386 0.017744308 -0.96191084 -0.24753183 -0.96127939 -0.24951695 -0.0066007124 0.016027166
8184562500 0.00091435463 0.016652761 -0.97257644 -0.20267546 -0.97144955 -0.20515428 -0.0057262937 0.015271525
8189550000 0.00177035 0.015583732 -0.98127049 -0.15715514 -0.98010546 -0.1593755 -0.004826759 0.014632098
8194537500 0.0025534343 0.014530238 -0.98729527 -0.11149941 -0.98693544 -0.11364733 -0.0040211449 0.013877241
8199525000 0.0032820245 0.013376467 -0.99185985 -0.065188341 -0.99081159 -0.067914627 -0.003278235 0.013056607
8204512500 0.0038939177 0.012234948 -0.99322402 -0.019519338 -0.99268645 -0.021793835 -0.0026077956 0.012261579
8209500000 0.0042969603 0.011084853 -0.99320984 0.026546139 -0.99316174 0.024259746 -0.0019716145 0.011380594
8214487500 0.0046726875 0.0097495811 -0.99105579 0.072867624 -0.99060291 0.070326082 -0.0014018494 0.010467306
8219475000 0.0048293234 0.0083021475 -0.9863472 0.11861479 -0.9863674 0.11578489 -0.0008365984 0.0094626918
8224462500 0.0049248068 0.0068978611 -0.97997165 0.16362776 -0.98000467 0.16150412 -0.00033560744 0.0083676279
8229450000 0.0047533326 0.0054534096 -0.97177333 0.20875551 -0.97180092 0.20640272 5.3832955e-006 0.0071645617
8234437500 0.0044406098 0.0038681044 -0.96068162 0.25325024 -0.96111602 0.25118652 0.000296132 0.0058842334
8239425000 0.0039001105 0.0023550228 -0.94842291 0.29741907 -0.94817418 0.29501519 0.00035454132 0.0045331097
8244412500 0.003314737 0.00090713135 -0.93391055 0.34047449 -0.93381131 0.33780837 0.00030113582 0.0031177229
8249400000 0.0026320892 -0.00048297641 -0.91688633 0.38303044 -0.91735375 0.38053674 2.0463405e-005 0.0016117097
8254387500 0.0017390214 -0.0017393574 -0.89812392 0.42510211 -0.8991974 0.4228352 -0.00037332581 0.00021857316
8259375000 0.00092127192 -0.0029609629 -0.87809724 0.46551141 -0.87834477 0.46323347 -0.0010343204 -0.0012469322
8264362500 7.2931369e-005 -0.0039274516 -0.85566759 0.50571066 -0.85607278 0.50313908 -0.0020519849 -0.0024630385
8269350000 -0.00077584211 -0.0048758802 -0.83154845 0.54394066 -0.83229494 0.54223514 -0.0029674638 -0.003543433
8274337500 -0.0016699778 -0.0057028835 -0.80586106 0.58115774 -0.80670792 0.5788998 -0.0040769256 -0.0043934821
8279325000 -0.0027593072 -0.0066013681 -0.77874035 0.61799228 -0.78018534 0.61503875 -0.0052106739 -0.0051434822
8284312500 -0.0036773751 -0.0072364863 -0.75026733 0.65202659 -0.75059766 0.65047592 -0.0063486965 -0.0056549232
8289300000 -0.00470878 -0.007790294 -0.71905935 0.68636477 -0.72051054 0.6840632 -0.0073226234 -0.006019304
8294287500 -0.0058147823 -0.0081871236 -0.68676043 0.71844655 -0.68815899 0.71622777 -0.008285732 -0.0061469884
8299275000 -0.0070813354 -0.0086881546 -0.65320784 0.74918342 -0.6549598 0.74682301 -0.0092708757 -0.0064676334
8304262500 -0.0085354708 -0.0087828655 -0.6183064 0.77757365 -0.62003756 0.77586609 -0.010014733 -0.006610997
8309250000 -0.010049098 -0.0087267477 -0.58311123 0.80487508 -0.58430529 0.80286062 -0.010765756 -0.006769326
8314237500 -0.011327341 -0.0085861376 -0.54609102 0.83011407 -0.54768366 0.82850188 -0.011819769 -0.0069107777
8319225000 -0.012674564 -0.0082952725 -0.50787997 0.85408694 -0.50987208 0.8526758 -0.012602914 -0.0071809157
8324212500 -0.014145914 -0.0078124623 -0.4690327 0.87632561 -0.47062823 0.87492442 -0.013475256 -0.007612559
8329200000 -0.015590836 -0.0071201446 -0.42786103 0.89700878 -0.43006161 0.89601302 -0.014542377 -0.0075262794
8334187500 -0.016709253 -0.006516824 -0.38708657 0.91550905 -0.38847494 0.91435593 -0.015750669 -0.0075622196
8339175000 -0.017818213 -0.0057631088 -0.34510368 0.93155009 -0.3467795 0.93062049 -0.016904924 -0.0074857944
8344162500 -0.018924631 -0.0051352181 -0.30305898 0.94637185 -0.30488819 0.94476342 -0.018238574 -0.007257699
8349150000 -0.01981435 -0.0043892516 -0.26106778 0.95856088 -0.26275405 0.95784891 -0.019556269 -0.0067437072
8354137500 -0.020788047 -0.0035331615 -0.2177428 0.96993798 -0.21935908 0.96818215 -0.020880008 -0.0060219015
8359125000 -0.021752227 -0.0028108712 -0.17362045 0.97911078 -0.1752504 0.97770381 -0.022046573 -0.005189592
8364112500 -0.022523414 -0.001988533 -0.12896453 0.98574454 -0.13108234 0.98492372 -0.023018653 -0.0040045609
8369100000 -0.023409303 -0.00094641611 -0.083734579 0.99063307 -0.086221695 0.98961818 -0.023858633 -0.0030075044
8374087500 -0.024056628 0.00013204072 -0.039699279 0.992805 -0.041490238 0.99245608 -0.024448376 -0.0018065806
8379075000 -0.024504501 0.0013046977 0.0048267324 0.99360722 0.0025571787 0.99263394 -0.025093744 -0.00061881496
8384062500 -0.024870457 0.0024723478 0.048771333 0.99186277 0.04631402 0.99209338 -0.025397694 0.00051491469
8389050000 -0.025039988 0.0038980946 0.092369191 0.9892664 0.090162486 0.98864818 -0.025489474 0.0017783262
8394037500 -0.025164876 0.0053879777 0.13662696 0.98449969 0.13431755 0.98416334 -0.025551284 0.0026923756
8399025000 -0.024957994 0.0067250179 0.18062346 0.97734475 0.1789287 0.97704631 -0.025639595 0.0039707641
8404012500 -0.02460791 0.0081649357 0.22472006 0.96839517 0.22294089 0.96781552 -0.025521278 0.0048687942
8409000000 -0.024188612 0.0095990514 0.26789171 0.95717221 0.26577646 0.95689684 -0.025477841 0.0060401941
8413987500 -0.023567697 0.010913743 0.30988747 0.94420874 0.30812594 0.94423866 -0.025366282 0.0070682825
8418975000 -0.023109792 0.012095465 0.35084939 0.92993218 0.34948936 0.92972815 -0.025057798 0.0079323621
8423962500 -0.022529688 0.012970162 0.39203003 0.91340667 0.39002493 0.91366494 -0.024815394 0.0089449454
8428950000 -0.021973955 0.014238381 0.43183833 0.89525294 0.4305082 0.8954497 -0.024480557 0.0098794801
8433937500 -0.021412127 0.015389849 0.47175592 0.87472171 0.46953896 0.87553942 -0.024047431 0.010840543
8438925000 -0.020697456 0.016486598 0.51053256 0.85288388 0.50835031 0.85349917 -0.023556346 0.011725795
8443912500 -0.019963024 0.01742924 0.5480237 0.82944852 0.54618901 0.83018452 -0.023099707 0.01261937
8448900000 -0.019029342 0.018271066 0.58379066 0.80386883 0.58179021 0.80509651 -0.02262914 0.01356399
8453887500 -0.018206185 0.01914794 0.6187163 0.77789992 0.61703128 0.77844077 -0.021713376 0.014445863
8458875000 -0.017087119 0.019874867 0.65173471 0.75025338 0.65002757 0.75090349 -0.020956973 0.015416341
8463862500 -0.015874626 0.020393699 0.68450379 0.72120059 0.68275821 0.72141486 -0.020134384 0.015824609
8468850000 -0.014869128 0.02079583 0.7156046 0.68967634 0.71390486 0.69055247 -0.019141601 0.016677346
8473837500 -0.01346789 0.020951407 0.74546725 0.65724915 0.7438398 0.65804559 -0.018058952 0.017255548
8478825000 -0.012138654 0.0210528 0.77462274 0.62436366 0.77268803 0.62436408 -0.016975725 0.017923143
8483812500 -0.010849504 0.021055782 0.80057204 0.589203 0.79910594 0.58997351 -0.015540974 0.018129406
8488800000 -0.0095163621 0.020846164 0.82533783 0.55332416 0.82419366 0.55460525 -0.01424951 0.01827189
8493787500 -0.0081717279 0.020546099 0.84894305 0.51684231 0.84776109 0.51784796 -0.012916613 0.018318135
8498775000 -0.0069648535 0.020036094 0.87103105 0.47894204 0.86969161 0.4804453 -0.011669527 0.018092223
8503762500 -0.0056803841 0.01983214 0.8912732 0.44075337 0.88993746 0.44168735 -0.010374814 0.017701132
8508750000 -0.0046390756 0.019362323 0.90995884 0.4011099 0.90880734 0.40235659 -0.0091721155 0.017268667
8513737500 -0.0032685064 0.019030338 0.92693436 0.36057031 0.92522496 0.3615779 -0.0082037402 0.016753852
8518725000 -0.0019000341 0.018474704 0.94161558 0.31970659 0.94048697 0.32094446 -0.0072887517 0.016167335
8523712500 -0.00081109803 0.017811552 0.95463961 0.27831706 0.95352608 0.27993047 -0.0066728909 0.015715875
8528700000 0.00032341055 0.017041121 0.96557695 0.23668952 0.96443999 0.23825996 -0.0059789401 0.014884625
8533687500 0.0013048169 0.016228231 0.97529447 0.19455825 0.97401088 0.19606872 -0.0053038285 0.014299876
8538675000 0.0022970552 0.015337489 0.98286867 0.15140066 0.9816184 0.1530503 -0.0047176993 0.013780589
8543662500 0.0030587695 0.014236815 0.98887467 0.10839321 0.98736531 0.10979134 -0.0042611249 0.013170287
8548650000 0.0036746827 0.013130512 0.99224621 0.065460131 0.9916113 0.066935189 -0.0035858217 0.012593426
8553637500 0.0041897949 0.011926034 0.99421018 0.02212128 0.99380958 0.02387326 -0.003012334 0.011925167
8558625000 0.0043716026 0.010669028 0.99474561 -0.02115158 0.99366802 -0.019879883 -0.002329902 0.011224148
8563612500 0.0045880848 0.0095048333 0.99221849 -0.064528793 0.9917022 -0.062362246 -0.0015924603 0.010196596
8568600000 0.0046384479 0.0081801871 0.98873305 -0.10747347 0.98824126 -0.10571965 -0.0011227172 0.009229416
8573587500 0.0045762192 0.0069545745 0.98344964 -0.14992636 0.98252279 -0.14884888 -0.00068203581 0.0081302254
8578575000 0.0045754481 0.0056958604 0.97573084 -0.19280453 0.97553807 -0.19111276 -0.00037699321 0.0068530669
8583562500 0.004339892 0.004334691 0.9661926 -0.2347924 0.96639788 -0.23254271 -0.00024038232 0.0056942543
8588550000 0.004255719 0.0031554147 0.9556272 -0.27634916 0.95482886 -0.27426645 -0.00029006301 0.0043800222
8593537500 0.0041599181 0.0018370332 0.94235688 -0.31690982 0.94242847 -0.31531638 -0.00049787282 0.0031077308
8598525000 0.003779599 0.00052825821 0.92809623 -0.3574852 0.92846704 -0.355575 -0.00082609063 0.0019305542
8603512500 0.003467846 -0.00079784513 0.91175604 -0.39759433 0.91202188 -0.39564624 -0.0013050947 0.00094534043
8608500000 0.0031108956 -0.0020675426 0.89384723 -0.43677673 0.89418274 -0.43516761 -0.0019334025 8.7698194e-005
8613487500 0.0023527804 -0.003295593 0.87431395 -0.4745315 0.87414467 -0.47272342 -0.002536068 -0.0007068619
8618475000 0.0017985849 -0.0045029931 0.85264075 -0.51217258 0.85336345 -0.51000088 -0.0031887603 -0.0014487982
8623462500 0.00091705978 -0.0055409218 0.83007056 -0.54828197 0.83043098 -0.54578263 -0.0038496389 -0.0021731425
8628450000 1.4092615e-005 -0.006303424 0.8058818 -0.58294779 0.80653137 -0.58143377 -0.0045369025 -0.0028468051
8633437500 -0.001193682 -0.0070940712 0.78052408 -0.61707687 0.7810027 -0.61512071 -0.0051749288 -0.0033493384
8638425000 -0.0022530924 -0.0075427741 0.75297421 -0.65008503 0.75408357 -0.64817643 -0.0057483241 -0.0038059512
8643412500 -0.0033553173 -0.0078037083 0.72404629 -0.68225056 0.72518498 -0.68038213 -0.0065744142 -0.0045820777
8648400000 -0.0045939567 -0.0080292718 0.69369304 -0.71288604 0.6953283 -0.71098959 -0.0074288133 -0.0049626785
8653387500 -0.0057566059 -0.0081144311 0.66281295 -0.74170834 0.66374284 -0.73976338 -0.008357482 -0.0054343804
8658375000 -0.0069045629 -0.0082556251 0.63035911 -0.76885408 0.63172305 -0.76731974 -0.0092188912 -0.0058042766
8663362500 -0.0081619909 -0.0082820253 0.5973255 -0.79487723 0.59848207 -0.79382741 -0.01019253 -0.0061877915
8668350000 -0.0093569858 -0.0083050989 0.56307864 -0.82012182 0.56465489 -0.81803745 -0.011364186 -0.0063979938
8673337500 -0.010606321 -0.0084060282 0.52786875 -0.84365863 0.5287081 -0.84184796 -0.012488605 -0.0065524373
8678325000 -0.012097449 -0.0083253616 0.49108917 -0.86565506 0.49271944 -0.86351681 -0.013504237 -0.0064316778
8683312500 -0.013283909 -0.0082461108 0.45301506 -0.88587636 0.45473653 -0.88409883 -0.014494381 -0.0061938139
8688300000 -0.01459488 -0.0080115199 0.41440296 -0.90437841 0.41622663 -0.90240127 -0.015398892 -0.0060692132
8693287500 -0.015798535 -0.0076853661 0.37580249 -0.92126727 0.37767303 -0.91895348 -0.016334973 -0.005829508
8698275000 -0.017014645 -0.0073478715 0.33670098 -0.93547225 0.33874255 -0.93418789 -0.017201651 -0.005250284
8703262500 -0.018220546 -0.0067893509 0.29721144 -0.94919008 0.29923081 -0.94806051 -0.018057218 -0.0048579443
8708250000 -0.019080173 -0.0062269657 0.25652194 -0.9610396 0.25863552 -0.96006554 -0.018800521 -0.0041819024
8713237500 -0.019763201 -0.0054310472 0.21508287 -0.97093135 0.21721227 -0.97025454 -0.019584356 -0.0036108904
8718225000 -0.020461436 -0.0045586247 0.17298834 -0.97975165 0.17492089 -0.97884589 -0.020430801 -0.0030086248
8723212500 -0.02092538 -0.0038145911 0.13113289 -0.98588246 0.13355564 -0.98550087 -0.020999333 -0.0021414035
8728200000 -0.021242099 -0.00289028 0.089651667 -0.99045211 0.091877274 -0.98978931 -0.021675892 -0.0011693612
8733187500 -0.021541061 -0.0019067057 0.048263151 -0.99325609 0.05015634 -0.99256361 -0.022158047 -0.00025346206
8738175000 -0.021769349 -0.0010278532 0.0064316662 -0.99439317 0.0086841108 -0.99381959 -0.022658935 0.00065747119
8743162500 -0.022065718 0.00026620584 -0.035446871 -0.99439162 -0.03305795 -0.99323976 -0.02289963 0.0017686882
8748150000 -0.022234241 0.0013674624 -0.078268252 -0.9923045 -0.075416148 -0.99128765 -0.023196299 0.0028013396
8753137500 -0.02228184 0.0024066975 -0.1198609 -0.98743474 -0.11755008 -0.98742491 -0.023409624 0.0037258016
8758125000 -0.022473155 0.0038761836 -0.16195178 -0.98201007 -0.15928693 -0.98168057 -0.023413543 0.0046915263
8763112500 -0.022392906 0.0051461603 -0.20354007 -0.97390985 -0.2002268 -0.973692 -0.023420004 0.0055361101
8768100000 -0.022542063 0.0065378211 -0.24364138 -0.96430779 -0.24075249 -0.96418583 -0.023412203 0.0065303524
8773087500 -0.022423998 0.0078394115 -0.28348589 -0.95332617 -0.28083208 -0.95327705 -0.023312721 0.007183379
8778075000 -0.02234054 0.0091642579 -0.32308146 -0.94046128 -0.32050148 -0.94085711 -0.023140144 0.0080045341
8783062500 -0.02206544 0.010519701 -0.36246693 -0.92658609 -0.35973698 -0.92651039 -0.023009349 0.0088751772
8788050000 -0.021645652 0.011487763 -0.40204477 -0.91033685 -0.39910474 -0.9104256 -0.022822665 0.0098867901
8793037500 -0.021253506 0.012541161 -0.44024265 -0.89172477 -0.43700063 -0.89304602 -0.022453343 0.011014434
8798025000 -0.020770136 0.013325036 -0.47689342 -0.87287724 -0.47415644 -0.87355697 -0.021948939 0.011620368
8803012500 -0.020271858 0.013904504 -0.51227075 -0.85202074 -0.51003301 -0.85309583 -0.021350279 0.012591669
8808000000 -0.019358579 0.014534555 -0.54764813 -0.83044261 -0.54501003 -0.83141226 -0.020771585 0.013573861
8812987500 -0.018889436 0.014975902 -0.58153325 -0.80732852 -0.57898903 -0.80782783 -0.019992128 0.014479122
8817975000 -0.017998399 0.015309822 -0.61529684 -0.78228253 -0.61246729 -0.78322393 -0.019146632 0.015266668
8822962500 -0.017138839 0.015758529 -0.64796668 -0.75568283 -0.64490265 -0.75639045 -0.018153232 0.01594986
8827950000 -0.016075144 0.01622122 -0.67918831 -0.72758961 -0.67628813 -0.72904998 -0.017193126 0.016304148
8832937500 -0.015112282 0.016666908 -0.70951456 -0.69832182 -0.70613897 -0.69955522 -0.016237151 0.016932728
8837925000 -0.013835607 0.017000107 -0.73737562 -0.66763854 -0.73468053 -0.66985106 -0.015301182 0.017217014
8842912500 -0.012433269 0.017203759 -0.76398289 -0.63707739 -0.76111001 -0.63917893 -0.014437568 0.017429316
8847900000 -0.01125941 0.017553965 -0.78991753 -0.60492927 -0.78733927 -0.6069383 -0.013709878 0.017578708
8852887500 -0.0097369533 0.017939912 -0.81414855 -0.57139611 -0.81212687 -0.57397187 -0.01290134 0.017689351
8857875000 -0.0084048323 0.018129192 -0.83716828 -0.53704113 -0.83540344 -0.53934115 -0.012203792 0.017811185
8862862500 -0.0070562889 0.018179063 -0.85940683 -0.50151896 -0.85752529 -0.50368172 -0.01129002 0.018025417
8867850000 -0.0059676156 0.018269135 -0.87960792 -0.46504268 -0.87721884 -0.46799633 -0.010490336 0.018030528
8872837500 -0.0049166451 0.018332832 -0.89791739 -0.42820054 -0.89606112 -0.4308252 -0.0096215783 0.018081984
8877825000 -0.0038556836 0.018157136 -0.91538286 -0.39083207 -0.9129954 -0.39337066 -0.0085578049 0.018035408
8882812500 -0.0030124693 0.018060405 -0.93011814 -0.35297826 -0.92824996 -0.35551631 -0.0076035433 0.017870214
8887800000 -0.0022549438 0.017720686 -0.94386786 -0.3145518 -0.94238096 -0.3172152 -0.0066017793 0.017585494
8892787500 -0.0016554687 0.017394722 -0.95683563 -0.27469289 -0.95473731 -0.27760839 -0.0055048973 0.01721937
