!Agilent Technologies,E8362C,MY49020356,A.09.42.23
!Agilent E8362C: A.09.42.23
!Date: Friday, November 08, 2024 19:39:37
!Correction: S11(Full 2 Port(1,2)) 
!S21(Full 2 Port(1,2)) 
!S12(Full 2 Port(1,2)) 
!S22(Full 2 Port(1,2)) 
!S2P File: Measurements: S11, S21, S12, S22:
# Hz S  RI   R 50
8010000000 -0.18295601 0.40088859 -0.76889718 -0.32525727 -0.76899487 -0.32590622 -0.2190786 0.38374591
8014987500 -0.16270334 0.4067688 -0.78579921 -0.2881366 -0.78592211 -0.28860298 -0.19926614 0.39162216
8019975000 -0.14229979 0.41175276 -0.80026382 -0.24977373 -0.79976064 -0.24966252 -0.17835063 0.39773026
8024962500 -0.12162838 0.41546845 -0.81279278 -0.21062809 -0.8125366 -0.21060988 -0.15812311 0.40290955
8029950000 -0.1005023 0.41806296 -0.82373518 -0.17062376 -0.82317698 -0.17112468 -0.13788524 0.40705621
8034937500 -0.079431131 0.41985416 -0.83245414 -0.12994492 -0.83170736 -0.1308797 -0.11759207 0.4098857
8039925000 -0.058521047 0.42028308 -0.83936048 -0.089284882 -0.83856064 -0.090208381 -0.097427979 0.41208595
8044912500 -0.037665825 0.41955104 -0.84363633 -0.047670368 -0.84319115 -0.049370538 -0.077179104 0.41328284
8049900000 -0.017040662 0.41764706 -0.84573621 -0.0063095805 -0.8459695 -0.0084264744 -0.057651713 0.41350204
8054887500 0.0033841603 0.41521159 -0.84640408 0.035482593 -0.84689474 0.033090938 -0.037866563 0.41311955
8059875000 0.022973346 0.41140872 -0.84460109 0.076397039 -0.84556508 0.073982075 -0.018050458 0.4115493
8064862500 0.04261335 0.40683475 -0.84095758 0.11787962 -0.84204358 0.11504108 0.0016093294 0.40913796
8069850000 0.061423838 0.4011367 -0.83550292 0.1586276 -0.83622509 0.15659575 0.021567473 0.40574524
8074837500 0.079543725 0.39488226 -0.82815152 0.19904716 -0.82904333 0.19729683 0.041027114 0.40148637
8079825000 0.097028047 0.38774604 -0.8189078 0.23898074 -0.81969792 0.23811007 0.060328025 0.39634073
8084812500 0.11418696 0.37996012 -0.807908 0.27870619 -0.80807519 0.27821857 0.079085693 0.38997984
8089800000 0.13083065 0.3716937 -0.79519528 0.31813541 -0.794846 0.31759816 0.09722735 0.38288334
8094787500 0.14709021 0.36222959 -0.77969778 0.35673359 -0.77924544 0.35625532 0.11470054 0.37458751
8099775000 0.16335295 0.35239866 -0.76249462 0.39576253 -0.76219857 0.39466316 0.13171783 0.36566669
8104762500 0.17869851 0.34183916 -0.74319249 0.43301925 -0.74321735 0.43155295 0.14770062 0.35580757
8109750000 0.1934467 0.33061647 -0.72276878 0.46953791 -0.72280133 0.46738249 0.1628713 0.34558588
8114737500 0.20741898 0.31830552 -0.69935197 0.50439227 -0.70008779 0.50262117 0.17763901 0.3346006
8119725000 0.22043297 0.30535585 -0.67481649 0.53821665 -0.6761511 0.53611541 0.19136783 0.32343164
8124712500 0.23277605 0.29207012 -0.64873075 0.57077223 -0.65061945 0.56919056 0.20509642 0.31181994
8129700000 0.24457465 0.27838525 -0.62091595 0.60213375 -0.62323213 0.60061562 0.21759538 0.29936978
8134687500 0.25515166 0.2643424 -0.59228063 0.63250029 -0.5944401 0.63075626 0.22993666 0.28643268
8139675000 0.26496759 0.24968065 -0.56183046 0.66081226 -0.56383032 0.66014099 0.24148162 0.27317345
8144662500 0.27397889 0.23479386 -0.5301469 0.68816555 -0.53145552 0.68753809 0.25234976 0.25912473
8149650000 0.28233269 0.21991129 -0.4971146 0.71358496 -0.49842966 0.7132839 0.26220572 0.24471107
8154637500 0.28974709 0.20484604 -0.46296474 0.73743057 -0.46383733 0.73685992 0.27121457 0.22997829
8159625000 0.29690507 0.18977062 -0.4282034 0.76047868 -0.42838806 0.75936723 0.27953804 0.21547136
8164612500 0.30328411 0.17438738 -0.39140281 0.78100461 -0.39145854 0.78021288 0.28724992 0.20009525
8169600000 0.30904019 0.15838392 -0.35306987 0.79991919 -0.35375357 0.79926682 0.29381007 0.18463749
8174587500 0.31457004 0.14267588 -0.31428558 0.81762815 -0.3153626 0.81634331 0.29960597 0.16946863
8179575000 0.31858581 0.12625147 -0.27407387 0.83207422 -0.2759704 0.83130413 0.30468306 0.15392201
8184562500 0.32215294 0.1103453 -0.23386194 0.84501731 -0.23633945 0.84418017 0.30875647 0.138458
8189550000 0.32484293 0.094192781 -0.19323744 0.85633385 -0.19621225 0.85572308 0.31292757 0.12326501
8194537500 0.3260996 0.078509539 -0.15313455 0.86526906 -0.15575598 0.86496282 0.31614432 0.10811108
8199525000 0.32686594 0.062516659 -0.11125667 0.87228513 -0.11444413 0.8721081 0.31889847 0.092417851
8204512500 0.32666686 0.047157943 -0.069763876 0.87740725 -0.072520889 0.87738675 0.3208406 0.076513611
8209500000 0.32578453 0.031747673 -0.027670966 0.88054347 -0.029754637 0.88093644 0.32182533 0.060160872
8214487500 0.32422477 0.016671788 0.014370018 0.88188547 0.012584586 0.88181406 0.32215467 0.044085395
8219475000 0.32196176 0.0021140974 0.056355692 0.88065517 0.054670852 0.88082767 0.32136413 0.028116856
8224462500 0.31923735 -0.012166769 0.097487092 0.87817675 0.096493967 0.87816387 0.32014278 0.012620944
8229450000 0.31637165 -0.026233708 0.13890082 0.8740052 0.13836959 0.87333345 0.31797594 -0.0026955958
8234437500 0.31255522 -0.040367715 0.18059458 0.86653805 0.17958035 0.86650264 0.31481326 -0.017599897
8239425000 0.30842507 -0.054721512 0.22225949 0.85785908 0.22075883 0.85728997 0.31085557 -0.031907607
8244412500 0.30392057 -0.068972193 0.2632235 0.84727103 0.26168349 0.84693319 0.30665711 -0.045791078
8249400000 0.29857621 -0.08339119 0.30424687 0.83367664 0.30208203 0.83417225 0.30157113 -0.059181124
8254387500 0.29249883 -0.097179934 0.34423223 0.81861329 0.34211135 0.81987405 0.29668191 -0.072298348
8259375000 0.28579915 -0.11028209 0.38212168 0.80178291 0.37994379 0.80303079 0.29100984 -0.084671572
8264362500 0.27862653 -0.12317226 0.41968116 0.78329903 0.4172945 0.78484452 0.28554386 -0.096698694
8269350000 0.27088776 -0.13546161 0.45571634 0.76316434 0.45436096 0.76504225 0.27954534 -0.10926536
8274337500 0.26266071 -0.14719659 0.49171305 0.74119467 0.4896341 0.7432037 0.27309296 -0.12131944
8279325000 0.25362599 -0.15811324 0.52676636 0.71776521 0.52504396 0.71981758 0.2661674 -0.13370417
8284312500 0.24448557 -0.16834198 0.56031877 0.69280851 0.55909282 0.69381452 0.25823554 -0.14566155
8289300000 0.23523058 -0.17799953 0.59258372 0.66609031 0.59158063 0.6671409 0.24985017 -0.15745147
8294287500 0.2258465 -0.1870856 0.62350327 0.63787746 0.62238693 0.63886565 0.24090439 -0.16850641
8299275000 0.21636325 -0.1955414 0.6527679 0.60901374 0.6520381 0.60912687 0.23139307 -0.17894137
8304262500 0.20642585 -0.20382142 0.68099403 0.57776791 0.68019181 0.57806361 0.22118057 -0.1888981
8309250000 0.19638333 -0.21188447 0.70785481 0.54541379 0.70690054 0.54604965 0.21068271 -0.19821717
8314237500 0.18581602 -0.21984199 0.73343903 0.51172352 0.73191583 0.51281595 0.19975398 -0.2062948
8319225000 0.17464635 -0.22734506 0.75696284 0.47673482 0.75527394 0.47828704 0.18887608 -0.21382773
8324212500 0.16329314 -0.23429297 0.77849501 0.44099063 0.77743435 0.44257268 0.17773497 -0.22088459
8329200000 0.15121423 -0.24095471 0.7988255 0.40370941 0.79758555 0.40594235 0.16692744 -0.22715187
8334187500 0.13887967 -0.24665949 0.81661874 0.3664507 0.81574571 0.36901575 0.1561213 -0.23295251
8339175000 0.1265213 -0.25170231 0.83265418 0.32831499 0.832147 0.3309797 0.1450603 -0.23855227
8344162500 0.11391765 -0.25632182 0.84759563 0.28968471 0.84715897 0.29226974 0.13369262 -0.24393864
8349150000 0.10120799 -0.2600165 0.86016446 0.25058481 0.86060506 0.25258338 0.12241566 -0.24888955
8354137500 0.088744484 -0.26280355 0.87140799 0.21076922 0.87119585 0.21191983 0.11046694 -0.253555
8359125000 0.07618919 -0.26508486 0.88046622 0.17013799 0.88050711 0.17105906 0.098465115 -0.25763345
8364112500 0.064084731 -0.2670671 0.88804901 0.12962936 0.88787246 0.12994815 0.086260885 -0.26136324
8369100000 0.051963799 -0.26846752 0.89383513 0.088201977 0.89307058 0.088911586 0.073719718 -0.26449618
8374087500 0.039840575 -0.26944593 0.89707738 0.046943899 0.89620209 0.047536246 0.061142437 -0.26673821
8379075000 0.027493188 -0.27021804 0.89853966 0.0047959816 0.89745915 0.0062354659 0.048568483 -0.26840386
8384062500 0.015307523 -0.27029973 0.89766175 -0.036613148 0.89692849 -0.034815207 0.036027364 -0.26943022
8389050000 0.0029583003 -0.27008089 0.89510238 -0.07799729 0.89509058 -0.076042846 0.023621922 -0.26988778
8394037500 -0.0092460159 -0.26924431 0.89049578 -0.1189323 0.89072567 -0.11658838 0.011525745 -0.269604
8399025000 -0.02167052 -0.26779771 0.88414359 -0.15971224 0.88474584 -0.15727332 -0.00040183112 -0.26892382
8404012500 -0.033916805 -0.26587361 0.87602669 -0.20008644 0.8768515 -0.19783203 -0.012324564 -0.26748875
8409000000 -0.046105228 -0.26319346 0.8663106 -0.23994137 0.86694622 -0.23757383 -0.023973422 -0.26572189
8413987500 -0.058023136 -0.259666 0.85410726 -0.27904519 0.85557467 -0.27727365 -0.035728373 -0.26361868
8418975000 -0.069714457 -0.25567505 0.84101677 -0.31747252 0.84201044 -0.31622106 -0.047131792 -0.26080516
8423962500 -0.080668226 -0.25103426 0.82605106 -0.35538623 0.82726067 -0.35427719 -0.058593042 -0.25767949
8428950000 -0.091243863 -0.24589658 0.80956453 -0.39198473 0.8097254 -0.39188349 -0.069999047 -0.25407234
8433937500 -0.10169467 -0.24066809 0.79126757 -0.42913932 0.79148906 -0.42803684 -0.081142724 -0.24996717
8438925000 -0.11162831 -0.23493186 0.77181733 -0.4648228 0.77130455 -0.46415791 -0.092227563 -0.24536008
8443912500 -0.12162685 -0.22889146 0.74992698 -0.50056601 0.74987316 -0.49924758 -0.10303067 -0.24029306
8448900000 -0.13105083 -0.22245024 0.72612417 -0.53377324 0.72619128 -0.53285939 -0.11327249 -0.23453498
8453887500 -0.1406015 -0.21577172 0.70109969 -0.56669438 0.70136976 -0.56514615 -0.12306619 -0.22832479
8458875000 -0.14950748 -0.20849918 0.67464209 -0.59771961 0.6752764 -0.59609789 -0.13256408 -0.22199886
8463862500 -0.15828109 -0.20111278 0.64716858 -0.62763512 0.64782631 -0.62607604 -0.14164886 -0.21543218
8468850000 -0.16681543 -0.19309869 0.61760414 -0.65607202 0.6195249 -0.65452856 -0.15015167 -0.20855185
8473837500 -0.17483388 -0.18493854 0.58785963 -0.68309939 0.58958173 -0.68182981 -0.15845329 -0.20119654
8478825000 -0.18281901 -0.17612255 0.55652577 -0.70969623 0.55823028 -0.70821309 -0.16665861 -0.19368377
8483812500 -0.18972015 -0.16700129 0.52410126 -0.73341274 0.5256539 -0.73287505 -0.17407505 -0.18545546
8488800000 -0.19628927 -0.15741712 0.49047413 -0.75641847 0.49229574 -0.75592548 -0.18128596 -0.17729238
8493787500 -0.20213136 -0.14773209 0.45638466 -0.7777319 0.45735103 -0.77723879 -0.18816674 -0.16844399
8498775000 -0.20727539 -0.13818684 0.42165133 -0.79779661 0.42219046 -0.79719275 -0.19459614 -0.15963289
8503762500 -0.21185267 -0.12843515 0.38643461 -0.81568253 0.38666382 -0.8154608 -0.20061523 -0.15029871
8508750000 -0.21594396 -0.11876899 0.35011366 -0.83288443 0.35015815 -0.83221775 -0.20629507 -0.14084727
8513737500 -0.21984026 -0.10874461 0.31253967 -0.84827185 0.31238437 -0.84691936 -0.21129607 -0.13073975
8518725000 -0.22298945 -0.098567076 0.27391839 -0.86166209 0.27409038 -0.8609466 -0.21572316 -0.12048224
8523712500 -0.22607234 -0.08812356 0.23391967 -0.87365621 0.23520504 -0.87239408 -0.21977317 -0.11039793
8528700000 -0.22841312 -0.077764258 0.19461977 -0.88322747 0.19606258 -0.88231474 -0.22301243 -0.10010676
8533687500 -0.23035499 -0.067541845 0.15511765 -0.89077109 0.15695536 -0.89045388 -0.22580376 -0.089953698
8538675000 -0.23191734 -0.05698517 0.11535266 -0.89682871 0.11736017 -0.89636433 -0.22806142 -0.080007367
8543662500 -0.2332578 -0.046517801 0.075809464 -0.90156198 0.077806994 -0.90089464 -0.22993287 -0.069900729
8548650000 -0.2337164 -0.036073908 0.036133658 -0.90341878 0.038098291 -0.90384561 -0.23138596 -0.060177121
8553637500 -0.23393917 -0.02528305 -0.0041602552 -0.90522772 -0.0025717628 -0.90572077 -0.23238544 -0.050227005
8558625000 -0.23355354 -0.014618164 -0.044713847 -0.90462548 -0.043512668 -0.90460837 -0.23306096 -0.040042672
8563612500 -0.2324044 -0.0042981454 -0.084783956 -0.90157157 -0.084023342 -0.90204841 -0.23296459 -0.030039785
8568600000 -0.23095119 0.0057613286 -0.12511887 -0.89750826 -0.12399223 -0.89733207 -0.2325981 -0.020220941
8573587500 -0.2288774 0.015521335 -0.16390468 -0.89123106 -0.16329671 -0.8906526 -0.2317718 -0.010553186
8578575000 -0.22641866 0.024738546 -0.20243384 -0.88373339 -0.20219387 -0.88328087 -0.23062517 -0.00086781452
8583562500 -0.22325774 0.03394134 -0.24153285 -0.87426108 -0.24053715 -0.87396848 -0.2290214 0.0087814154
8588550000 -0.21996573 0.042867318 -0.2802369 -0.86351317 -0.27906319 -0.86265922 -0.2265048 0.018681061
8593537500 -0.21650976 0.051756021 -0.31903672 -0.8502022 -0.31730264 -0.85003263 -0.22378476 0.02812092
8598525000 -0.21240725 0.060351007 -0.35708198 -0.83515787 -0.35520902 -0.83557194 -0.22061329 0.037346121
8603512500 -0.20759553 0.068680994 -0.39368486 -0.81859428 -0.39157736 -0.81906724 -0.21716744 0.046065137
8608500000 -0.20276272 0.076545402 -0.42920992 -0.80083102 -0.42735717 -0.80186862 -0.21325 0.054657407
8613487500 -0.19734254 0.084192254 -0.46325988 -0.78131372 -0.46153158 -0.78253478 -0.20873567 0.062807284
8618475000 -0.19195922 0.091473386 -0.49726489 -0.7609157 -0.4955425 -0.76228023 -0.204244 0.070619553
8623462500 -0.18610439 0.098847792 -0.53049111 -0.73862761 -0.52843338 -0.74030018 -0.19928253 0.077997826
8628450000 -0.1797003 0.10566001 -0.5625906 -0.71569443 -0.56188476 -0.71630317 -0.19412896 0.085459121
8633437500 -0.17314677 0.11214133 -0.59378922 -0.69002718 -0.59277558 -0.69100142 -0.18853746 0.092259362
8638425000 -0.16632801 0.11845155 -0.62401694 -0.66320193 -0.62293291 -0.66454047 -0.18268234 0.098652117
8643412500 -0.15949327 0.12380552 -0.65250009 -0.63600278 -0.65210402 -0.63636827 -0.1767612 0.10484829
8648400000 -0.15249819 0.12917328 -0.68035465 -0.60688299 -0.67925912 -0.60747916 -0.17041567 0.11061108
8653387500 -0.14550571 0.13395205 -0.70633698 -0.57752007 -0.70495909 -0.57738495 -0.16421966 0.11598568
8658375000 -0.13849793 0.13836034 -0.73167109 -0.54600877 -0.73011643 -0.54668015 -0.15767393 0.12109158
8663362500 -0.13110287 0.1423524 -0.75500154 -0.51335871 -0.75380152 -0.51435733 -0.15098138 0.12584893
8668350000 -0.12385043 0.14589722 -0.77746409 -0.47971132 -0.7756744 -0.48090672 -0.14398687 0.13023062
8673337500 -0.11640632 0.14910644 -0.79801667 -0.44487637 -0.79671043 -0.44686627 -0.1370924 0.13431041
8678325000 -0.10907738 0.15181108 -0.81698239 -0.40988004 -0.81582838 -0.41203812 -0.13012874 0.13795477
8683312500 -0.10154678 0.15384883 -0.83413815 -0.37424776 -0.83283019 -0.37632877 -0.12302226 0.14119552
8688300000 -0.094098009 0.15539494 -0.84988201 -0.33749583 -0.84848517 -0.33982682 -0.11581834 0.14409737
8693287500 -0.086598262 0.15656492 -0.86402845 -0.3003799 -0.86278898 -0.30266237 -0.10859024 0.14668991
8698275000 -0.079169385 0.15744779 -0.8762787 -0.26280203 -0.87563425 -0.26476935 -0.1011898 0.14880997
8703262500 -0.071755767 0.15799893 -0.88748157 -0.22443715 -0.88734329 -0.22664209 -0.093924865 0.15072927
8708250000 -0.064357474 0.15805545 -0.89687574 -0.1858106 -0.89671433 -0.18742791 -0.08654736 0.15205176
8713237500 -0.057158694 0.15784086 -0.90453881 -0.14693718 -0.90401912 -0.14817105 -0.079310142 0.15284193
8718225000 -0.050003372 0.15754373 -0.91072178 -0.10720981 -0.91045487 -0.1083867 -0.072220735 0.15329008
8723212500 -0.042870075 0.1568695 -0.91487348 -0.0674733 -0.91448998 -0.069149725 -0.065315358 0.15335222
8728200000 -0.035970792 0.15602238 -0.91777092 -0.027716761 -0.91658074 -0.029670382 -0.058643978 0.15302154
8733187500 -0.029119698 0.15480436 -0.91807431 0.012091641 -0.91765249 0.010709239 -0.052113861 0.15250814
8738175000 -0.022325359 0.15351607 -0.91713202 0.052227773 -0.91665345 0.050180539 -0.045888383 0.15166081
8743162500 -0.015845766 0.15171395 -0.91428834 0.092153884 -0.91398108 0.089559473 -0.039745636 0.15074927
8748150000 -0.0095088277 0.14973073 -0.90953732 0.13235307 -0.9099223 0.12921947 -0.033746097 0.14969125
8753137500 -0.0035521116 0.14737679 -0.90325558 0.17151789 -0.90375847 0.16852698 -0.027975632 0.14845985
8758125000 0.001979762 0.14486641 -0.89573848 0.20993534 -0.89607829 0.20774819 -0.022191133 0.14688943
8763112500 0.0074506095 0.14209735 -0.88569951 0.24905151 -0.8865009 0.24636281 -0.016448312 0.14517498
8768100000 0.012355118 0.13899817 -0.87440091 0.28708965 -0.87522578 0.28455031 -0.011011166 0.14328323
8773087500 0.016876793 0.13581966 -0.8613869 0.32433286 -0.86202931 0.32214803 -0.0053592785 0.14105999
8778075000 0.02117656 0.13259302 -0.84698683 0.36113977 -0.84783 0.35895649 -0.00019063076 0.13850105
8783062500 0.025066419 0.12935373 -0.8318432 0.39747068 -0.83141679 0.39559752 0.004795704 0.13572358
8788050000 0.028853055 0.12588872 -0.81368357 0.43329498 -0.81395251 0.43112472 0.0095506702 0.13272098
8793037500 0.032465141 0.12229057 -0.79432422 0.46850964 -0.79515696 0.46596837 0.014031863 0.12956987
8798025000 0.035927307 0.11879733 -0.77380127 0.5026294 -0.77457237 0.50036442 0.018316118 0.12623885
8803012500 0.039351936 0.11488765 -0.75125867 0.53553015 -0.75254464 0.53351933 0.021896014 0.12273484
8808000000 0.042627312 0.1110525 -0.72732699 0.56831688 -0.72897846 0.56561983 0.025297295 0.1192487
8812987500 0.04552893 0.10700604 -0.70274234 0.59845579 -0.70395529 0.59605581 0.028456476 0.11601978
8817975000 0.048163552 0.10285722 -0.67668849 0.62830448 -0.67824042 0.62600058 0.031429429 0.11277314
8822962500 0.050808758 0.098638348 -0.64930254 0.65715724 -0.65108854 0.654383 0.034172792 0.10948332
8827950000 0.053022124 0.094457723 -0.62087476 0.68437463 -0.62252796 0.68223435 0.036928784 0.10630371
8832937500 0.055079591 0.090164632 -0.59070265 0.71110153 -0.5926072 0.70871234 0.039330594 0.10303406
8837925000 0.056866899 0.08605165 -0.55928767 0.73600739 -0.56208926 0.73413688 0.041797079 0.099887021
8842912500 0.058293004 0.08211723 -0.52766466 0.75918949 -0.5298537 0.7573967 0.04408522 0.096419401
8847900000 0.059451986 0.078263797 -0.49478599 0.78105056 -0.49685168 0.77959836 0.046134818 0.092848368
8852887500 0.060325984 0.074876785 -0.461449 0.8014878 -0.46388704 0.80026406 0.047955476 0.089430086
8857875000 0.0612677 0.071607426 -0.42718437 0.82061499 -0.42926896 0.81902665 0.049514152 0.085791655
8862862500 0.062025309 0.06847164 -0.39211836 0.83859968 -0.39392185 0.83730686 0.05084018 0.082213469
8867850000 0.06266427 0.06538216 -0.35552469 0.85495281 -0.35793081 0.85361207 0.051853918 0.078612164
8872837500 0.063203804 0.062276572 -0.31801561 0.87007475 -0.32009843 0.86869997 0.052601617 0.074974105
8877825000 0.063599713 0.059278667 -0.28012517 0.8833164 -0.2824831 0.88155931 0.053159297 0.071707025
8882812500 0.063641921 0.056441084 -0.24269071 0.8940087 -0.24503705 0.8927508 0.053340286 0.068533972
8887800000 0.063538902 0.053473543 -0.20486093 0.9031933 -0.2073106 0.90202999 0.053474315 0.065515578
8892787500 0.063079074 0.050295103 -0.16660756 0.91090828 -0.16883199 0.90984273 0.053857893 0.062915556
8897775000 0.062589288 0.047472533 -0.12788531 0.91761291 -0.13090323 0.91696328 0.053969562 0.060278527
8902762500 0.061822258 0.044448275 -0.08889547 0.92272693 -0.09158475 0.92220163 0.054246895 0.057717994
8907750000 0.060916238 0.041764572 -0.049034175 0.92594606 -0.051786818 0.92574316 0.054597829 0.055333775
8912737500 0.059648287 0.038955562 -0.0086582107 0.92763746 -0.011693977 0.9276042 0.054826416 0.052869353
8917725000 0.058551099 0.036449853 0.031038484 0.926691 0.028068854 0.9269262 0.055085514 0.05063476
8922712500 0.057654753 0.034081902 0.070080802 0.92473149 0.067313701 0.92508018 0.055062898 0.04810784
8927700000 0.056792591 0.031796589 0.10859341 0.92104995 0.10565986 0.92072964 0.055130288 0.046026964
8932687500 0.055977013 0.029899376 0.14672188 0.91566384 0.14430757 0.91577232 0.055015791 0.043831673
8937675000 0.05530424 0.027961781 0.18510649 0.90862668 0.18266709 0.90894276 0.05455672 0.041608259
8942662500 0.054910515 0.025944555 0.22402066 0.90049964 0.22137755 0.90067339 0.054142661 0.039474733
