!Agilent Technologies,E8362C,MY49020356,A.09.42.23
!Agilent E8362C: A.09.42.23
!Date: Friday, November 08, 2024 19:14:06
!Correction: S11(Full 2 Port(1,2)) 
!S21(Full 2 Port(1,2)) 
!S12(Full 2 Port(1,2)) 
!S22(Full 2 Port(1,2)) 
!S2P File: Measurements: S11, S21, S12, S22:
# Hz S  RI   R 50
8010000000 0.53676558 0.36438301 0.58761573 0.21317457 0.58688653 0.2136922 -0.6506238 0.02661889
8014987500 0.55330735 0.33927092 0.59758842 0.18497396 0.5969258 0.18559183 -0.64833868 0.057863511
8019975000 0.56838 0.31332552 0.60591906 0.15577248 0.60574138 0.15687688 -0.64471781 0.088836744
8024962500 0.58278835 0.28678709 0.61348408 0.12664884 0.61324507 0.12750459 -0.63978189 0.11960655
8029950000 0.5947296 0.25947386 0.61864316 0.096936353 0.61864638 0.098070137 -0.63350964 0.14918467
8034937500 0.60600978 0.23212612 0.62269336 0.067181379 0.62227023 0.068296663 -0.62545884 0.17883295
8039925000 0.61555165 0.20423992 0.62512577 0.037501752 0.62454188 0.038189474 -0.61630595 0.20844947
8044912500 0.62361073 0.17612971 0.62590015 0.0074909101 0.62559384 0.0087051764 -0.60631919 0.23765691
8049900000 0.63069552 0.1479844 0.6254831 -0.021907331 0.62565142 -0.020914003 -0.5950318 0.26644355
8054887500 0.63679421 0.11968597 0.62377036 -0.051568281 0.62375426 -0.050579906 -0.58220357 0.294958
8059875000 0.64172399 0.092332654 0.62070632 -0.080070235 0.62046903 -0.079126596 -0.56767505 0.32224402
8064862500 0.64528197 0.064295791 0.61590344 -0.10878008 0.61594576 -0.10748024 -0.55193681 0.34918845
8069850000 0.6473794 0.036445096 0.60988116 -0.13675928 0.6101855 -0.13562492 -0.5346173 0.37547544
8074837500 0.6487031 0.0085833492 0.60331589 -0.16468531 0.60350204 -0.16336519 -0.51613486 0.40073842
8079825000 0.6488682 -0.019612482 0.59554672 -0.19236828 0.59574974 -0.19127174 -0.49586123 0.42527664
8084812500 0.64748722 -0.048228089 0.58623302 -0.22011262 0.58653587 -0.21932045 -0.47419855 0.44843209
8089800000 0.64494854 -0.076961458 0.57597244 -0.24788883 0.57603151 -0.24667531 -0.45181447 0.47030982
8094787500 0.64087862 -0.10563063 0.5640468 -0.2749877 0.56423175 -0.27386755 -0.42849478 0.49097541
8099775000 0.63548827 -0.13474044 0.55063725 -0.30197617 0.55089533 -0.30074731 -0.40406513 0.51033348
8104762500 0.62856954 -0.16283663 0.5356853 -0.32771453 0.53651118 -0.32633394 -0.37933177 0.52797931
8109750000 0.62081933 -0.19027169 0.52016044 -0.35265005 0.52050954 -0.35149229 -0.35359749 0.54505903
8114737500 0.61105812 -0.21759324 0.50294811 -0.37682897 0.50354707 -0.37571928 -0.32745329 0.56081921
8119725000 0.60065705 -0.24400422 0.48523134 -0.39978787 0.48579654 -0.39871761 -0.30100378 0.57564908
8124712500 0.58917987 -0.26940843 0.46646273 -0.42179388 0.46702608 -0.42114812 -0.27344102 0.58982253
8129700000 0.57701552 -0.29497409 0.44655466 -0.44312972 0.44723836 -0.44209546 -0.24569251 0.60178882
8134687500 0.56364834 -0.31913146 0.42584294 -0.4632704 0.42669836 -0.4620088 -0.21690987 0.61318094
8139675000 0.54893714 -0.34338382 0.40410757 -0.48209518 0.40502378 -0.48123404 -0.18748672 0.62283063
8144662500 0.53325331 -0.36658686 0.38161349 -0.50025666 0.38240442 -0.49923372 -0.15713394 0.63096642
8149650000 0.51735753 -0.38927749 0.35855618 -0.51748359 0.35959327 -0.51699024 -0.12672971 0.63776821
8154637500 0.50000775 -0.41161722 0.33456457 -0.53427428 0.33554712 -0.53315318 -0.095959105 0.64212602
8159625000 0.48167136 -0.43334875 0.30962586 -0.54998332 0.31032842 -0.54898596 -0.064747915 0.64584142
8164612500 0.46227029 -0.45371902 0.28362265 -0.56411982 0.28446949 -0.56327528 -0.033610735 0.64711589
8169600000 0.44184026 -0.47339597 0.25691724 -0.57696217 0.25780916 -0.57645828 -0.0025634894 0.64708078
8174587500 0.42102322 -0.49237609 0.22979191 -0.5887686 0.23067364 -0.58803272 0.027824998 0.64550769
8179575000 0.39889607 -0.51000702 0.20201178 -0.59882766 0.20301117 -0.59829319 0.058394417 0.64263469
8184562500 0.37679872 -0.52671349 0.17390245 -0.60788769 0.17543377 -0.60737145 0.088492565 0.6386587
8189550000 0.35406604 -0.54149717 0.14608845 -0.61533368 0.14752732 -0.61504209 0.1186276 0.63388199
8194537500 0.33088678 -0.55530822 0.11832882 -0.62160701 0.11980141 -0.62128788 0.14807701 0.62776029
8199525000 0.30705744 -0.56806886 0.089815907 -0.62650424 0.091649994 -0.62587786 0.17780885 0.61979264
8204512500 0.28316039 -0.57944381 0.061716128 -0.63006037 0.063392974 -0.6297074 0.20747136 0.61063367
8209500000 0.25884214 -0.59056681 0.033063784 -0.63272095 0.034862652 -0.6326592 0.23682526 0.59979576
8214487500 0.23378026 -0.60006803 0.0042359848 -0.63403612 0.0057206438 -0.63391858 0.26627079 0.58712721
8219475000 0.2086188 -0.60888511 -0.024774957 -0.63425827 -0.023400569 -0.63412744 0.29479915 0.57280177
8224462500 0.18324582 -0.61684489 -0.053848404 -0.6333434 -0.05254953 -0.63324964 0.3223663 0.55742997
8229450000 0.15746084 -0.62356538 -0.083088718 -0.63088083 -0.081947856 -0.63077366 0.34912714 0.54028994
8234437500 0.13095324 -0.62961221 -0.11280562 -0.62681597 -0.11138611 -0.62667179 0.37414882 0.52149022
8239425000 0.10391919 -0.63455951 -0.1418924 -0.62136638 -0.14036097 -0.62115836 0.39780033 0.50233746
8244412500 0.076914988 -0.63859838 -0.17070463 -0.61434209 -0.16957667 -0.61432177 0.42098787 0.48190096
8249400000 0.049253877 -0.64146245 -0.1993726 -0.60542345 -0.19798695 -0.60576469 0.44245148 0.46014476
8254387500 0.021910125 -0.64293629 -0.22719733 -0.59572554 -0.22580579 -0.59613955 0.46339974 0.43817604
8259375000 -0.0046895528 -0.64306712 -0.25369614 -0.58492601 -0.252332 -0.58519769 0.48247638 0.41545311
8264362500 -0.031571683 -0.64197963 -0.27983308 -0.57285833 -0.27831063 -0.57338226 0.50115186 0.39273587
8269350000 -0.057514612 -0.6398555 -0.30501565 -0.56005675 -0.30368391 -0.5605334 0.51892006 0.36840871
8274337500 -0.08341559 -0.63655847 -0.33006111 -0.54589701 -0.32814869 -0.5468328 0.5359928 0.34330136
8279325000 -0.10867345 -0.63203669 -0.35421199 -0.53107882 -0.35261109 -0.53194976 0.55258852 0.31697184
8284312500 -0.1337451 -0.62615752 -0.3775605 -0.51517832 -0.3765384 -0.515576 0.56740713 0.28912026
8289300000 -0.15880801 -0.61949527 -0.40119028 -0.49786365 -0.39983392 -0.49859676 0.58103931 0.26008812
8294287500 -0.18251623 -0.61207706 -0.42370394 -0.47999543 -0.42262298 -0.48026976 0.59316301 0.23028746
8299275000 -0.20625743 -0.60384041 -0.44581068 -0.46090668 -0.44489232 -0.46104401 0.60371137 0.20015492
8304262500 -0.23018914 -0.59429276 -0.46712968 -0.43985575 -0.46608716 -0.44055542 0.61203313 0.1694442
8309250000 -0.25293392 -0.58483738 -0.4870916 -0.41870761 -0.48609746 -0.41908652 0.6187889 0.13847253
8314237500 -0.27627042 -0.57392943 -0.50613189 -0.39573774 -0.50513375 -0.39646634 0.62352192 0.10789089
8319225000 -0.29973951 -0.56225902 -0.5243001 -0.37212473 -0.52320904 -0.37298733 0.6273126 0.077113256
8324212500 -0.32223579 -0.54959017 -0.54078037 -0.34783244 -0.53995162 -0.34888843 0.62917513 0.046569679
8329200000 -0.34488928 -0.53580946 -0.55627257 -0.32283232 -0.55520409 -0.32399523 0.62972277 0.016667508
8334187500 -0.36652553 -0.52114916 -0.57038414 -0.29771861 -0.56947398 -0.29923978 0.62953079 -0.012631468
8339175000 -0.38677761 -0.50579983 -0.58276069 -0.27229294 -0.58185947 -0.27390811 0.6273039 -0.04196585
8344162500 -0.40679032 -0.48942709 -0.59434414 -0.24607031 -0.59345514 -0.24816556 0.6243608 -0.071386188
8349150000 -0.42560861 -0.47279993 -0.60472417 -0.22035597 -0.60436732 -0.22155157 0.62034762 -0.10109754
8354137500 -0.44332704 -0.45460954 -0.61442488 -0.19345553 -0.61386788 -0.19430664 0.61499822 -0.13151805
8359125000 -0.46072099 -0.43610117 -0.6231581 -0.1660407 -0.62264591 -0.1665061 0.60777217 -0.16182432
8364112500 -0.47688743 -0.41721228 -0.63077617 -0.13789585 -0.63000065 -0.13845825 0.59878153 -0.19181262
8369100000 -0.4920297 -0.3977913 -0.63698637 -0.10925236 -0.63649279 -0.10953044 0.5882197 -0.22196507
8374087500 -0.50641286 -0.37774646 -0.64154261 -0.08012104 -0.64116681 -0.080786802 0.57604295 -0.25058028
8379075000 -0.52018917 -0.3575516 -0.6449551 -0.050856087 -0.64407718 -0.051774889 0.56211954 -0.27841112
8384062500 -0.53328598 -0.33684629 -0.64663607 -0.021258267 -0.64600855 -0.022536576 0.54692554 -0.30571151
8389050000 -0.54554224 -0.31569892 -0.64706886 0.0076039853 -0.64701504 0.0065333825 0.53097898 -0.33177084
8394037500 -0.55750811 -0.29436439 -0.64636832 0.036630023 -0.64622897 0.035123274 0.51353097 -0.35640374
8399025000 -0.56877226 -0.27205014 -0.64428991 0.06544596 -0.64435589 0.063846566 0.49559554 -0.37995696
8404012500 -0.57922995 -0.2493678 -0.64097148 0.093920141 -0.64120156 0.09237054 0.47632566 -0.40252617
8409000000 -0.58848858 -0.22626847 -0.63640589 0.12193845 -0.63652593 0.12036795 0.45631799 -0.42394656
8413987500 -0.59659487 -0.20246999 -0.63042229 0.14970194 -0.63095695 0.1480923 0.43551692 -0.44444269
8418975000 -0.60387897 -0.17905715 -0.62408274 0.1766924 -0.62421185 0.17561519 0.41384032 -0.46387365
8423962500 -0.60954416 -0.15504198 -0.61616528 0.20386487 -0.6166029 0.20294236 0.39117399 -0.48323059
8428950000 -0.61422288 -0.13050562 -0.60750365 0.23115438 -0.60729569 0.23057315 0.36719775 -0.50176543
8433937500 -0.61780471 -0.1065337 -0.59720641 0.25852507 -0.59720886 0.2576516 0.34204361 -0.51903117
8438925000 -0.62051415 -0.082445517 -0.58598095 0.28508261 -0.58535045 0.28482646 0.31596854 -0.53508002
8443912500 -0.62267911 -0.057992954 -0.5730083 0.31218961 -0.57279307 0.31118786 0.2892538 -0.54992735
8448900000 -0.62363362 -0.033605326 -0.55827814 0.33814362 -0.55802977 0.33696747 0.26133162 -0.56264418
8453887500 -0.62371987 -0.0098768612 -0.54273427 0.36250752 -0.54282326 0.36143529 0.23385774 -0.57371497
8458875000 -0.62287325 0.013843925 -0.5260945 0.38618517 -0.52635401 0.38512549 0.20580487 -0.58374023
8463862500 -0.62151879 0.037553459 -0.5085938 0.40915066 -0.50901294 0.40818721 0.17746998 -0.59277874
8468850000 -0.61945331 0.061609548 -0.49024051 0.43097273 -0.49089307 0.43007395 0.14915715 -0.59972978
8473837500 -0.61644769 0.085640341 -0.47084954 0.45208949 -0.47184208 0.45094031 0.12091868 -0.60532546
8478825000 -0.61275786 0.10970158 -0.45120385 0.47257176 -0.45214814 0.47129467 0.092634276 -0.61021268
8483812500 -0.60797095 0.13326512 -0.43074408 0.4914695 -0.43171296 0.49037942 0.064384542 -0.61281031
8488800000 -0.60135311 0.15708464 -0.40914381 0.50945413 -0.41043952 0.50890481 0.03612056 -0.61478221
8493787500 -0.59404927 0.18036182 -0.38745502 0.52701592 -0.38828063 0.52661955 0.0075049587 -0.61503917
8498775000 -0.58573192 0.20312212 -0.36511761 0.54433787 -0.36527976 0.54352885 -0.021038439 -0.61436051
8503762500 -0.57657075 0.22503766 -0.34182343 0.56056768 -0.34172535 0.55980963 -0.049775597 -0.61215752
8508750000 -0.56604052 0.24649587 -0.31741288 0.57591021 -0.31719303 0.57535827 -0.078603327 -0.60892665
8513737500 -0.55491608 0.2680704 -0.29141152 0.59055293 -0.29141018 0.58927697 -0.10733602 -0.60348552
8518725000 -0.54313391 0.28889954 -0.2649262 0.60355788 -0.26545376 0.6027739 -0.135732 -0.59737539
8523712500 -0.53070736 0.30921239 -0.2379525 0.61528242 -0.23835252 0.61431211 -0.16386572 -0.5893544
8528700000 -0.51697689 0.32899508 -0.21008022 0.62531745 -0.21087904 0.62484688 -0.19124344 -0.5802356
8533687500 -0.50362635 0.3477242 -0.18298298 0.63423008 -0.18376462 0.63357115 -0.21761449 -0.56989467
8538675000 -0.48916033 0.36630186 -0.15495941 0.6415782 -0.15618749 0.6412518 -0.24346074 -0.55862033
8543662500 -0.47441646 0.38480142 -0.12707135 0.64800435 -0.12862261 0.64760214 -0.26829228 -0.54594368
8548650000 -0.45923477 0.40258205 -0.099399954 0.6530633 -0.10113103 0.65269095 -0.29219636 -0.53263509
8553637500 -0.44292241 0.42009929 -0.071719974 0.65712321 -0.073382452 0.6569072 -0.31527582 -0.51834953
8558625000 -0.4257029 0.43704 -0.043512363 0.66023374 -0.044804849 0.65986711 -0.33842215 -0.50279945
8563612500 -0.4075518 0.45311782 -0.015387288 0.66182953 -0.016343057 0.66170228 -0.36017969 -0.48607421
8568600000 -0.3886008 0.46799365 0.012864943 0.6627568 0.01255974 0.66290247 -0.38164172 -0.46870509
8573587500 -0.36965659 0.48195505 0.041133981 0.66295463 0.04123174 0.66201502 -0.40168196 -0.45006347
8578575000 -0.34968281 0.49491432 0.070068277 0.66162205 0.069881491 0.66103059 -0.42111063 -0.43106872
8583562500 -0.32937571 0.50661391 0.098972604 0.65914398 0.098491468 0.65849972 -0.43982136 -0.41135943
8588550000 -0.30856782 0.51786947 0.1284567 0.65519023 0.12764484 0.65410614 -0.45743364 -0.38969809
8593537500 -0.28731138 0.528023 0.15749225 0.64902109 0.15645207 0.64858168 -0.4737533 -0.3677091
8598525000 -0.26597217 0.53754914 0.18613283 0.64213508 0.1850277 0.64201254 -0.48963389 -0.34512645
8603512500 -0.2440137 0.54607457 0.21418534 0.63396913 0.21278796 0.63368678 -0.50369513 -0.32221848
8608500000 -0.22199249 0.55363649 0.2417219 0.62448877 0.24026941 0.62477076 -0.51706666 -0.29877147
8613487500 -0.20043896 0.56028587 0.26784214 0.6140517 0.26640961 0.6145252 -0.52880883 -0.27514955
8618475000 -0.17822985 0.56650907 0.2940014 0.60259098 0.29204822 0.60327905 -0.53920698 -0.25118542
8623462500 -0.15586358 0.57257175 0.31947941 0.59006882 0.31720725 0.59092373 -0.54835808 -0.22670375
8628450000 -0.13252102 0.57748973 0.34427503 0.57674515 0.34294131 0.57752073 -0.55707628 -0.20157817
8633437500 -0.10922816 0.58146286 0.36884513 0.56247193 0.36759025 0.56298012 -0.56402856 -0.17636102
8638425000 -0.085458606 0.5845747 0.39300472 0.54716784 0.39228889 0.54768902 -0.56977016 -0.1508157
8643412500 -0.061680667 0.58650774 0.41702351 0.53096914 0.41606855 0.53081846 -0.57408255 -0.12493841
8648400000 -0.038004551 0.58712631 0.44025457 0.51336557 0.43952474 0.51281232 -0.57734293 -0.099070139
8653387500 -0.014340081 0.58689624 0.46311307 0.49482423 0.46175161 0.49420694 -0.57966399 -0.073809907
8658375000 0.0088097891 0.5855754 0.48506787 0.47462869 0.48383489 0.47466928 -0.58097816 -0.048005469
8663362500 0.031737663 0.58270735 0.50588489 0.4535569 0.50459802 0.45368162 -0.58137637 -0.022483505
8668350000 0.054329466 0.57925534 0.52588493 0.43143752 0.5245319 0.43207076 -0.58068359 0.0032136899
8673337500 0.0769144 0.57495981 0.54499096 0.40854156 0.54372501 0.4093987 -0.57877219 0.028919036
8678325000 0.098506719 0.56926233 0.56218499 0.38511187 0.5613091 0.38648942 -0.57605314 0.053906824
8683312500 0.12023558 0.56337762 0.57916617 0.3610577 0.57792008 0.36275789 -0.57180184 0.07891237
8688300000 0.14106126 0.55584663 0.5942297 0.33629397 0.59276462 0.33818337 -0.5663268 0.10347309
8693287500 0.16170093 0.54814696 0.60867989 0.31173727 0.6068694 0.31340122 -0.56002486 0.12770657
8698275000 0.18206477 0.53963447 0.62148827 0.28642774 0.62094015 0.28800222 -0.55249667 0.15183349
8703262500 0.2030164 0.5303151 0.63414496 0.26025042 0.63368356 0.26177537 -0.54372507 0.17557041
8708250000 0.2235415 0.52024591 0.6460585 0.23389159 0.64546305 0.23487698 -0.53388083 0.19845262
8713237500 0.24376756 0.50888616 0.65669954 0.20641975 0.65595573 0.20705332 -0.52243567 0.22077332
8718225000 0.26366791 0.49714953 0.66648799 0.17837329 0.6658293 0.17872468 -0.5104996 0.24227744
8723212500 0.28337458 0.48465875 0.67512786 0.14942099 0.67428219 0.15009733 -0.49744025 0.26300928
8728200000 0.3023802 0.47134355 0.68240607 0.12013555 0.68124413 0.12127581 -0.48386624 0.28247803
8733187500 0.32059437 0.45720744 0.68794835 0.090552755 0.68700337 0.091619395 -0.46951732 0.3015959
8738175000 0.33798245 0.44219568 0.69196731 0.060527876 0.69123119 0.062059768 -0.45479158 0.3202073
8743162500 0.3542839 0.42687649 0.6948415 0.030526889 0.69436449 0.032314654 -0.43936402 0.33836395
8748150000 0.36989513 0.41072109 0.69608712 0.0001427001 0.69622833 0.002543503 -0.42338228 0.356141
8753137500 0.38428155 0.39464349 0.69671321 -0.02921937 0.69648921 -0.027322277 -0.40661263 0.37320739
8758125000 0.39777097 0.37800115 0.69545883 -0.058764946 0.69570196 -0.056301668 -0.38929263 0.3890509
8763112500 0.41066349 0.3609482 0.69309485 -0.088385515 0.69371724 -0.085897192 -0.37078917 0.40471208
8768100000 0.4221811 0.34356385 0.68966025 -0.11740825 0.69026351 -0.11500072 -0.35176718 0.41923404
8773087500 0.43286377 0.32606715 0.68541151 -0.14618087 0.68559843 -0.14429678 -0.33165726 0.43293735
8778075000 0.44305626 0.30787501 0.67978871 -0.17493805 0.68018889 -0.17383565 -0.31105012 0.44537425
8783062500 0.45307019 0.28944781 0.67399591 -0.20423667 0.67333418 -0.20332019 -0.29000553 0.4567731
8788050000 0.46206993 0.27012214 0.66586614 -0.2337542 0.66538066 -0.23299545 -0.26812181 0.46723059
8793037500 0.47073182 0.24990718 0.65616423 -0.26365432 0.65592158 -0.2618641 -0.24632855 0.47578061
8798025000 0.47870579 0.22987138 0.64560163 -0.29238412 0.64545768 -0.2905682 -0.2248321 0.48367956
8803012500 0.48581156 0.2088369 0.63289988 -0.32072058 0.63318157 -0.31915912 -0.20312902 0.48994106
8808000000 0.49219108 0.18804048 0.6194818 -0.34858206 0.61982262 -0.34655648 -0.18154711 0.49551415
8812987500 0.49730459 0.16702756 0.60485321 -0.37525815 0.60550451 -0.37297589 -0.16034332 0.50066
8817975000 0.50125337 0.14563183 0.58875674 -0.40150505 0.5897193 -0.39913198 -0.13859549 0.50518799
8822962500 0.5045141 0.12450255 0.5715515 -0.42686525 0.57312131 -0.42416167 -0.11689473 0.50895828
8827950000 0.50686222 0.10398336 0.5538184 -0.45114261 0.55550992 -0.44864249 -0.094735131 0.51197356
8832937500 0.50829965 0.083471999 0.53485847 -0.47463784 0.53670371 -0.47243655 -0.072281331 0.51369262
8837925000 0.50920874 0.063245662 0.5151329 -0.49744928 0.51735258 -0.49565351 -0.049769059 0.51469898
8842912500 0.50891709 0.043576416 0.49482414 -0.51931357 0.49656889 -0.51785219 -0.026897298 0.51413208
8847900000 0.50810188 0.023988046 0.47355115 -0.54086155 0.47476184 -0.53937209 -0.0040576863 0.51247001
8852887500 0.50638956 0.0050150552 0.45131251 -0.56145519 0.45231146 -0.56047916 0.018593056 0.50972217
8857875000 0.50425589 -0.014022518 0.42827198 -0.58181524 0.42888483 -0.5804137 0.040549885 0.50559789
8862862500 0.50156885 -0.033045907 0.40364864 -0.60136837 0.40392879 -0.59973824 0.062582113 0.50023311
8867850000 0.49790585 -0.052483354 0.37742922 -0.62001985 0.37872291 -0.61809206 0.083576672 0.49406886
8872837500 0.49310941 -0.071922451 0.350196 -0.6370756 0.35135072 -0.63547915 0.10432838 0.48680267
8877825000 0.48778427 -0.090829335 0.32254255 -0.6527158 0.32411695 -0.65086079 0.12384333 0.47893962
8882812500 0.48099723 -0.10937372 0.29443666 -0.66652918 0.29630864 -0.66491681 0.14272812 0.47067067
8887800000 0.47365236 -0.12739731 0.26631701 -0.67901635 0.26830438 -0.6776799 0.16129054 0.46218622
8892787500 0.46534792 -0.14548191 0.23729569 -0.69032341 0.23963502 -0.68917179 0.17957959 0.45310369
8897775000 0.45620108 -0.16264823 0.20787238 -0.7004683 0.21098283 -0.69959146 0.19783415 0.44379413
8902762500 0.44661704 -0.1793779 0.17867288 -0.7095747 0.18164054 -0.70883322 0.21587226 0.43359095
8907750000 0.43653157 -0.19561352 0.1485928 -0.71775758 0.15129009 -0.71697217 0.23397781 0.42219582
8912737500 0.42570543 -0.21122444 0.11828585 -0.72453994 0.1207668 -0.72423548 0.25163972 0.40985417
8917725000 0.41429657 -0.22610123 0.087645635 -0.72993714 0.089672029 -0.72950679 0.26845434 0.3965615
8922712500 0.402861 -0.24043719 0.056759398 -0.73423523 0.058473814 -0.73410606 0.28443658 0.38230675
8927700000 0.39147529 -0.25398505 0.026326831 -0.73774278 0.027374903 -0.73682457 0.29947525 0.36734715
8932687500 0.37998781 -0.26718733 -0.0052643623 -0.73981369 -0.0039058437 -0.73861653 0.31353953 0.35153273
8937675000 0.367984 -0.28048491 -0.037314832 -0.73995715 -0.035562463 -0.73939371 0.3260037 0.33507457
8942662500 0.35573867 -0.2935949 -0.069925345 -0.73942107 -0.067984276 -0.73826128 0.33786052 0.31789216
8947650000 0.34318221 -0.30646279 -0.10243601 -0.73715413 -0.10017743 -0.73630404 0.34882471 0.30121794
