!Agilent Technologies,E8362C,MY49020356,A.09.42.23
!Agilent E8362C: A.09.42.23
!Date: Friday, November 08, 2024 19:20:32
!Correction: S11(Full 2 Port(1,2)) 
!S21(Full 2 Port(1,2)) 
!S12(Full 2 Port(1,2)) 
!S22(Full 2 Port(1,2)) 
!S2P File: Measurements: S11, S21, S12, S22:
# Hz S  RI   R 50
8010000000 -0.062963098 -0.1734876 -0.65213537 -0.29461569 -0.65192544 -0.29616898 -0.20674622 0.028505074
8014987500 -0.063825749 -0.17571284 -0.66705692 -0.26059186 -0.66664779 -0.26151526 -0.20672271 0.031932376
8019975000 -0.065223277 -0.1774641 -0.67914301 -0.22462016 -0.67913842 -0.22614118 -0.20687221 0.035456277
8024962500 -0.066673465 -0.18003365 -0.68986505 -0.18947376 -0.68973404 -0.19010508 -0.207394 0.038899865
8029950000 -0.068376303 -0.18201071 -0.69794095 -0.1531918 -0.69777346 -0.15429996 -0.20819597 0.042154934
8034937500 -0.070399724 -0.18450736 -0.70463085 -0.11680966 -0.70452666 -0.11777073 -0.2092213 0.045970749
8039925000 -0.072628766 -0.1870254 -0.70964307 -0.080412067 -0.70900404 -0.080915175 -0.21067758 0.050152361
8044912500 -0.075025514 -0.18980038 -0.71221977 -0.043639023 -0.71167922 -0.044265345 -0.21229818 0.054816689
8049900000 -0.077749543 -0.19276614 -0.71268535 -0.0072945431 -0.71248019 -0.0078138364 -0.21409829 0.059617918
8054887500 -0.080951378 -0.19555247 -0.7118746 0.029648142 -0.71154445 0.029175567 -0.21608323 0.065227129
8059875000 -0.084220789 -0.19870754 -0.70849431 0.06616728 -0.70823818 0.06496609 -0.21774869 0.071238779
8064862500 -0.088078514 -0.20199823 -0.7036345 0.1024845 -0.70335639 0.10108743 -0.21926495 0.077927507
8069850000 -0.092352264 -0.20516142 -0.69665611 0.13848333 -0.69675475 0.13670662 -0.22057606 0.085055284
8074837500 -0.097105198 -0.20824581 -0.68767625 0.17395535 -0.68823302 0.17197093 -0.22157644 0.092590854
8079825000 -0.10261142 -0.21138738 -0.67716837 0.20851001 -0.67808062 0.2065451 -0.22211842 0.10037988
8084812500 -0.10869655 -0.21416833 -0.66508222 0.24234152 -0.66611993 0.2406906 -0.22244944 0.10840636
8089800000 -0.11525232 -0.21673268 -0.65127939 0.27545479 -0.65214092 0.27410713 -0.22246796 0.11674255
8094787500 -0.12247518 -0.21875647 -0.63569266 0.30774295 -0.63658631 0.30700794 -0.22233622 0.12540042
8099775000 -0.13025931 -0.22050199 -0.61851132 0.33974379 -0.61914754 0.33842722 -0.22157228 0.13405699
8104762500 -0.13806179 -0.22182964 -0.59969425 0.37004703 -0.60009539 0.36919862 -0.22065386 0.14317518
8109750000 -0.1460474 -0.22288322 -0.57961321 0.39930391 -0.58012789 0.39824733 -0.21969809 0.15254053
8114737500 -0.15415351 -0.22336696 -0.5578658 0.42714006 -0.55808955 0.42644346 -0.21819155 0.16253437
8119725000 -0.16249818 -0.22384234 -0.53504765 0.45378879 -0.5351516 0.45309901 -0.21637687 0.17278102
8124712500 -0.17120829 -0.22411916 -0.51108551 0.47948396 -0.51104891 0.47887507 -0.21379916 0.18359157
8129700000 -0.18014064 -0.22391044 -0.48542216 0.5037151 -0.48563045 0.5027675 -0.21061336 0.19441077
8134687500 -0.18935239 -0.22340919 -0.45891199 0.52659607 -0.45935246 0.52548897 -0.20661661 0.20576869
8139675000 -0.19910775 -0.22232737 -0.43103957 0.54785454 -0.43213689 0.54705894 -0.20197935 0.21704347
8144662500 -0.20889956 -0.22092545 -0.40223232 0.56786478 -0.40389922 0.56678545 -0.19645071 0.22839147
8149650000 -0.21881357 -0.21913721 -0.37283128 0.58603197 -0.37496772 0.58531553 -0.1901813 0.23950283
8154637500 -0.22901689 -0.21650475 -0.34285119 0.60262293 -0.34497556 0.60219473 -0.18310116 0.2503646
8159625000 -0.23942181 -0.21365778 -0.31275016 0.61828154 -0.31427103 0.6174922 -0.1755117 0.26135144
8164612500 -0.24958132 -0.20959151 -0.28092301 0.63162953 -0.28254175 0.63132995 -0.16685884 0.27194473
8169600000 -0.25994068 -0.20514992 -0.24904975 0.64379221 -0.25013277 0.64364171 -0.15752223 0.28248987
8174587500 -0.2703307 -0.20006299 -0.21663074 0.65453786 -0.21753146 0.65420264 -0.14770566 0.29281375
8179575000 -0.28031206 -0.19433081 -0.18380569 0.66304189 -0.18444581 0.66267025 -0.13700742 0.3026326
8184562500 -0.29023677 -0.18851328 -0.15111916 0.67009461 -0.15169391 0.66927439 -0.12580301 0.31215453
8189550000 -0.29984361 -0.18186313 -0.11794949 0.67552119 -0.11879633 0.67509186 -0.1138942 0.32195976
8194537500 -0.30938777 -0.17493494 -0.085222177 0.67934263 -0.085908413 0.67872411 -0.10115445 0.33117026
8199525000 -0.3186717 -0.16723882 -0.051631209 0.68153077 -0.053106546 0.68071461 -0.087533236 0.33986855
8204512500 -0.32784709 -0.15920205 -0.018751945 0.681768 -0.019941773 0.68140686 -0.072890803 0.34798804
8209500000 -0.33731723 -0.15037477 0.014932777 0.68076265 0.013214821 0.68064427 -0.057601418 0.35520422
8214487500 -0.34595004 -0.14113586 0.048175901 0.67775249 0.046026252 0.67793202 -0.041701794 0.36168489
8219475000 -0.35465112 -0.13149051 0.080920801 0.67327124 0.078840867 0.67406535 -0.025086854 0.36725521
8224462500 -0.36298719 -0.12140547 0.11301634 0.6674664 0.11110088 0.66838187 -0.008329588 0.37207004
8229450000 -0.3710469 -0.1108639 0.14485943 0.6603936 0.14311224 0.66129041 0.0089100832 0.37602288
8234437500 -0.37872824 -0.09974581 0.17618309 0.65125656 0.17458585 0.65221566 0.026581425 0.37884408
8239425000 -0.3859503 -0.087909289 0.20704469 0.64081782 0.20569795 0.64136833 0.044388063 0.38102412
8244412500 -0.39297318 -0.075994253 0.23704407 0.6292277 0.23610935 0.62975067 0.062498011 0.38255408
8249400000 -0.39943802 -0.06365186 0.26670712 0.61555439 0.26596531 0.61615509 0.081053555 0.3827495
8254387500 -0.40550295 -0.050663073 0.29545185 0.60087097 0.29454651 0.60140526 0.099942721 0.38218087
8259375000 -0.41114834 -0.038182911 0.32246652 0.58557326 0.32174909 0.58533406 0.11859182 0.38064036
8264362500 -0.41593644 -0.024791989 0.34898993 0.56856871 0.34820339 0.56822801 0.13770454 0.37846777
8269350000 -0.42032966 -0.011304534 0.37443584 0.55049622 0.37409446 0.55057615 0.15711813 0.37508658
8274337500 -0.42419574 0.0027330678 0.39957383 0.53102255 0.39841509 0.53145969 0.17668821 0.37050664
8279325000 -0.42758375 0.016877908 0.42370233 0.51094854 0.42212322 0.51167792 0.19650808 0.36493573
8284312500 -0.43011466 0.031768426 0.44675013 0.48919201 0.4456079 0.49033475 0.2163157 0.35788476
8289300000 -0.43226507 0.046530165 0.4689343 0.46684229 0.46737993 0.46856672 0.23550805 0.34959444
8294287500 -0.43347019 0.061310586 0.48960248 0.44319576 0.48834395 0.44492641 0.2547121 0.33987021
8299275000 -0.43417469 0.076012738 0.50937217 0.41910276 0.50835407 0.42078927 0.27345073 0.32943729
8304262500 -0.43432802 0.091321543 0.52778643 0.39365715 0.52716982 0.39515319 0.29175502 0.31757769
8309250000 -0.43416893 0.10613306 0.54493362 0.36794329 0.54443341 0.36923006 0.30955189 0.30492541
8314237500 -0.433478 0.12135558 0.56077993 0.3411856 0.56022024 0.3419973 0.32652286 0.2910943
8319225000 -0.43228042 0.13678615 0.57531351 0.31368601 0.5746268 0.31447735 0.34268034 0.27652463
8324212500 -0.43073857 0.15196231 0.58810598 0.28624272 0.58754617 0.28650326 0.35829291 0.2609607
8329200000 -0.42845225 0.16808479 0.59984875 0.2574344 0.59929001 0.25798729 0.37329051 0.24463099
8334187500 -0.42566803 0.18367346 0.60997194 0.22938134 0.60930717 0.22957948 0.38728544 0.22797328
8339175000 -0.42221072 0.19935183 0.61865461 0.20057526 0.61770701 0.20098558 0.40050259 0.21020867
8344162500 -0.41807026 0.21504365 0.62589878 0.17148121 0.62521386 0.17244409 0.41318277 0.19172382
8349150000 -0.41305882 0.23047981 0.63184971 0.14241381 0.63162392 0.14368814 0.42519018 0.17260082
8354137500 -0.40731579 0.24594301 0.63708287 0.11266856 0.63634717 0.11425862 0.43635637 0.15200582
8359125000 -0.40114981 0.26128274 0.64087653 0.082970373 0.64036286 0.084476158 0.44636935 0.13066053
8364112500 -0.39391315 0.27591756 0.64287502 0.052918114 0.6431706 0.05466168 0.45559639 0.10858437
8369100000 -0.38640007 0.29056677 0.64388722 0.022650981 0.64411169 0.024596034 0.46317539 0.08563675
8374087500 -0.37820834 0.30440328 0.64322811 -0.0070242803 0.64350325 -0.0056862105 0.46975949 0.061983798
8379075000 -0.36951396 0.31789273 0.64111304 -0.036804818 0.64118505 -0.035601601 0.4748767 0.038111169
8384062500 -0.36093625 0.33126867 0.63801396 -0.066213697 0.63778055 -0.065305553 0.47886336 0.013766451
8389050000 -0.35158801 0.34477744 0.63328075 -0.095394798 0.63337505 -0.09448725 0.48167887 -0.010439591
8394037500 -0.34198385 0.35769662 0.627253 -0.12380118 0.62738067 -0.12325765 0.48305342 -0.035052907
8399025000 -0.33165768 0.37098292 0.62016493 -0.15192381 0.61980844 -0.15162806 0.48293972 -0.059090249
8404012500 -0.32064906 0.38419247 0.61142093 -0.17975524 0.61115485 -0.17951483 0.48181474 -0.083561614
8409000000 -0.30912104 0.3972691 0.6019631 -0.20707139 0.60139626 -0.2065988 0.47944483 -0.10759382
8413987500 -0.29653212 0.40974647 0.59064531 -0.2338623 0.59069282 -0.23301478 0.47585171 -0.13164496
8418975000 -0.283721 0.42203301 0.57878506 -0.25990373 0.57867908 -0.25912657 0.47095424 -0.15550977
8423962500 -0.26990482 0.43348351 0.56534028 -0.2856307 0.56596637 -0.28437594 0.4651444 -0.17951462
8428950000 -0.25569996 0.44396088 0.55129135 -0.31052029 0.55175036 -0.30941972 0.45803192 -0.2034374
8433937500 -0.24126355 0.45426634 0.53568339 -0.33536321 0.53661418 -0.33376375 0.44949269 -0.22735323
8438925000 -0.22612718 0.46373212 0.51897645 -0.35901234 0.51995802 -0.35799938 0.43980071 -0.251073
8443912500 -0.21122539 0.47260332 0.50138456 -0.38220561 0.50251484 -0.38135192 0.42877486 -0.27489191
8448900000 -0.19609103 0.4805254 0.48241031 -0.40371081 0.48310912 -0.40324441 0.41572416 -0.29774937
8453887500 -0.18084128 0.4883371 0.46285427 -0.42453891 0.46339795 -0.42415851 0.40193191 -0.31971151
8458875000 -0.16575257 0.49558622 0.44269928 -0.44396576 0.44309071 -0.44367656 0.38716468 -0.34112471
8463862500 -0.15022692 0.50278211 0.42173234 -0.46273702 0.4217203 -0.46208334 0.37114668 -0.36185747
8468850000 -0.13413148 0.50955307 0.40006018 -0.4802112 0.40040386 -0.47985649 0.35426882 -0.38136378
8473837500 -0.11789228 0.51615393 0.37800518 -0.4967815 0.37787628 -0.49652636 0.33629403 -0.40007988
8478825000 -0.10077026 0.52220505 0.35525733 -0.51255208 0.35483652 -0.5120244 0.31747124 -0.41800764
8483812500 -0.083066761 0.52757597 0.33159837 -0.5269261 0.33174664 -0.52606004 0.29788613 -0.43392754
8488800000 -0.064566553 0.53195846 0.30729952 -0.54027998 0.30795139 -0.5396685 0.27773607 -0.44947755
8493787500 -0.045624811 0.53583658 0.28259292 -0.55288249 0.28340277 -0.55220789 0.25655234 -0.46361578
8498775000 -0.026562553 0.53842902 0.2573469 -0.56433004 0.25865766 -0.56382847 0.23503351 -0.47714412
8503762500 -0.0078333411 0.54050517 0.23185764 -0.57494324 0.23313497 -0.57486689 0.21261007 -0.4899672
8508750000 0.011160681 0.54129547 0.20564136 -0.58461684 0.20680511 -0.58432573 0.18945006 -0.50159335
8513737500 0.030002663 0.54171145 0.17878693 -0.59293056 0.17953013 -0.59240478 0.16492163 -0.51214463
8518725000 0.048465095 0.541197 0.15147686 -0.59922975 0.15227579 -0.59965581 0.13995546 -0.52188545
8523712500 0.066812821 0.54036409 0.12420722 -0.6049 0.1247194 -0.60475343 0.1142639 -0.53006613
8528700000 0.085266359 0.53890049 0.096712381 -0.60885274 0.097334541 -0.60877961 0.088533081 -0.53684133
8533687500 0.10326696 0.53718781 0.069601022 -0.6117934 0.070200905 -0.61149603 0.06244316 -0.54238278
8538675000 0.12103663 0.53490818 0.042667996 -0.61289018 0.043051623 -0.61250925 0.035670292 -0.54626656
8543662500 0.13905445 0.53263962 0.016129365 -0.61326766 0.016460191 -0.61301047 0.0093563665 -0.54905498
8548650000 0.15708418 0.52972513 -0.010185511 -0.61232013 -0.0098581677 -0.61233139 -0.016915951 -0.55050296
8553637500 0.17619169 0.52646631 -0.036707047 -0.61100376 -0.036374953 -0.61073983 -0.043118749 -0.55082327
8558625000 0.19531672 0.52178347 -0.063500382 -0.60830104 -0.062651478 -0.60772395 -0.069507971 -0.54943311
8563612500 0.21467718 0.51582509 -0.090182818 -0.60386717 -0.088760272 -0.60422379 -0.095290557 -0.5466488
8568600000 0.233459 0.50878775 -0.11632802 -0.59906614 -0.11522409 -0.59907383 -0.12117343 -0.54258984
8573587500 0.25178811 0.50118828 -0.1422776 -0.5931738 -0.14129131 -0.59337109 -0.14695707 -0.53782314
8578575000 0.26980868 0.49242207 -0.16824323 -0.58618718 -0.16729729 -0.58656937 -0.17203642 -0.53182328
8583562500 0.28688523 0.48291263 -0.19383244 -0.57767409 -0.19287878 -0.57861382 -0.19742884 -0.52506816
8588550000 0.30366758 0.47274673 -0.21938828 -0.56822467 -0.21859048 -0.56869513 -0.22265728 -0.51624638
8593537500 0.32019937 0.46242175 -0.24419279 -0.55757165 -0.24346063 -0.5579114 -0.24762683 -0.50658983
8598525000 0.33599949 0.45157975 -0.26844314 -0.54548824 -0.2678892 -0.54606807 -0.2726354 -0.49548495
8603512500 0.35172167 0.44000965 -0.29203403 -0.53266037 -0.29110563 -0.53283006 -0.29650718 -0.48324227
8608500000 0.36677408 0.42852584 -0.31429183 -0.51901037 -0.31380448 -0.519086 -0.31980893 -0.46972743
8613487500 0.38103202 0.41683182 -0.33527631 -0.50445879 -0.33474782 -0.50465536 -0.34172583 -0.45545608
8618475000 0.39615214 0.40483025 -0.3562279 -0.4894363 -0.35547045 -0.48945674 -0.36326888 -0.43981281
8623462500 0.41084453 0.39220247 -0.37597486 -0.47319224 -0.37532341 -0.47355747 -0.38359088 -0.42307281
8628450000 0.42632055 0.37871918 -0.3956567 -0.45659006 -0.39503711 -0.45685178 -0.40342423 -0.405422
8633437500 0.44083184 0.36385846 -0.41473669 -0.43875995 -0.4136211 -0.43937209 -0.42175037 -0.38689661
8638425000 0.45511603 0.34866858 -0.4331063 -0.42037117 -0.43208042 -0.42126736 -0.43924287 -0.36757869
8643412500 0.46888238 0.33243868 -0.45118034 -0.40119576 -0.45017925 -0.40214115 -0.4559662 -0.34715796
8648400000 0.48145851 0.31546047 -0.46831095 -0.38093024 -0.46738645 -0.38215998 -0.47171906 -0.32648572
8653387500 0.49253401 0.29832232 -0.48417938 -0.36035556 -0.48322994 -0.36113814 -0.48617151 -0.30534199
8658375000 0.50273699 0.28090772 -0.49929595 -0.33859122 -0.49880013 -0.33956969 -0.50071365 -0.28313491
8663362500 0.5118022 0.26306704 -0.51312447 -0.31629387 -0.51284981 -0.31727266 -0.51425266 -0.26060283
8668350000 0.52035004 0.24530779 -0.52624404 -0.29356092 -0.52543038 -0.29461524 -0.52642441 -0.2372442
8673337500 0.52841175 0.22732216 -0.53816372 -0.27036473 -0.5376398 -0.27124301 -0.53801167 -0.21301381
8678325000 0.53515583 0.20933875 -0.548549 -0.24698654 -0.54831117 -0.24776506 -0.54805845 -0.18853144
8683312500 0.5422405 0.19124995 -0.55847365 -0.22338922 -0.55779052 -0.22423767 -0.55683249 -0.16358142
8688300000 0.5478639 0.17253268 -0.56688023 -0.19930376 -0.56623513 -0.20048074 -0.56450015 -0.13825791
8693287500 0.55366421 0.15396914 -0.57447982 -0.1756532 -0.57366824 -0.17658572 -0.57076848 -0.112672
8698275000 0.5592469 0.13487393 -0.5809232 -0.15160613 -0.58039755 -0.15255167 -0.57528996 -0.086968064
8703262500 0.56451553 0.11489499 -0.58687997 -0.12685654 -0.5866577 -0.12797892 -0.57901531 -0.060597159
8708250000 0.56942052 0.093934432 -0.5922246 -0.1016745 -0.59179688 -0.10321783 -0.5807718 -0.034789074
8713237500 0.5729745 0.073009387 -0.59614515 -0.076354831 -0.59595704 -0.077661403 -0.5813902 -0.0085221929
8718225000 0.57614428 0.05152297 -0.59941041 -0.050388366 -0.59920865 -0.05166401 -0.58074147 0.017431894
8723212500 0.57833946 0.029982768 -0.60119659 -0.024257168 -0.60118526 -0.025692176 -0.57897174 0.043114122
8728200000 0.57917958 0.0089164628 -0.6016407 0.0016542377 -0.60157377 0.00017169851 -0.57607448 0.068230063
8733187500 0.57936996 -0.012080029 -0.60082501 0.02752414 -0.60077739 0.026106659 -0.57228279 0.093400933
8738175000 0.57837051 -0.032767784 -0.59875035 0.053521406 -0.59922153 0.052212041 -0.56806993 0.11902349
8743162500 0.57686496 -0.052569494 -0.59605372 0.07878267 -0.59627998 0.077534616 -0.56247026 0.1441981
8748150000 0.57452881 -0.072242945 -0.59190369 0.10415916 -0.59228718 0.10301191 -0.55586022 0.16979395
8753137500 0.57150716 -0.091296166 -0.58702868 0.12867191 -0.58738548 0.12789732 -0.54821682 0.194875
8758125000 0.56805307 -0.11022481 -0.58134806 0.15304133 -0.58135569 0.15214682 -0.53913039 0.21926464
8763112500 0.5636999 -0.12900431 -0.57428271 0.1771269 -0.57437569 0.17582712 -0.52866834 0.2432577
8768100000 0.55847818 -0.1476028 -0.56657356 0.20074946 -0.56673586 0.19948587 -0.51726794 0.2669732
8773087500 0.55261451 -0.16579361 -0.557917 0.22408126 -0.55809808 0.22261666 -0.50425255 0.28987575
8778075000 0.5461812 -0.18474302 -0.54842401 0.24736094 -0.54900092 0.24617699 -0.49039057 0.31202289
8783062500 0.53899843 -0.20406663 -0.53834701 0.27107945 -0.53836942 0.26981115 -0.47505555 0.33361503
8788050000 0.5310033 -0.2230233 -0.52667791 0.29428956 -0.52718014 0.29291579 -0.45883185 0.35410854
8793037500 0.5215162 -0.24233887 -0.5134244 0.3174541 -0.51463097 0.31545705 -0.4418636 0.3731426
8798025000 0.51239747 -0.26067629 -0.50014508 0.33936819 -0.50086546 0.33799806 -0.42417425 0.39188123
8803012500 0.50173664 -0.2793828 -0.48492271 0.36046422 -0.48599049 0.35955691 -0.40601921 0.40922815
8808000000 0.49095559 -0.29719678 -0.46926105 0.38130924 -0.47022223 0.37990898 -0.38720503 0.42574647
8812987500 0.47941309 -0.31425676 -0.45268062 0.40079814 -0.45386484 0.399526 -0.3680461 0.4418031
8817975000 0.46755311 -0.33074555 -0.43581593 0.41970894 -0.436856 0.41835707 -0.34822923 0.45747057
8822962500 0.45538229 -0.3463479 -0.41799378 0.43767059 -0.41896462 0.43653369 -0.32760513 0.47250652
8827950000 0.44286484 -0.36147869 -0.39957014 0.45498362 -0.40070868 0.45369175 -0.30631581 0.48649195
8832937500 0.4299345 -0.37594011 -0.38043106 0.47122926 -0.38159293 0.46999466 -0.28383464 0.49929655
8837925000 0.41671735 -0.38979849 -0.36091095 0.48666865 -0.36214119 0.48555878 -0.26096347 0.51109397
8842912500 0.40313518 -0.40297094 -0.34086969 0.5016408 -0.34236643 0.50063449 -0.23741899 0.52174884
8847900000 0.38908142 -0.41598094 -0.32005695 0.51639599 -0.32163176 0.51513684 -0.2129349 0.53105968
8852887500 0.37424517 -0.42799127 -0.29846287 0.53006721 -0.30007526 0.5290975 -0.18813065 0.53884619
8857875000 0.35930863 -0.43956029 -0.27657965 0.54310244 -0.27792883 0.54238588 -0.16347328 0.54534805
8862862500 0.34346896 -0.45110118 -0.25316477 0.5557459 -0.25460488 0.55481839 -0.13810836 0.55067497
8867850000 0.3269892 -0.46178654 -0.22900528 0.56662381 -0.23054993 0.56583822 -0.11298572 0.55433118
8872837500 0.30985224 -0.47204283 -0.20449579 0.57654351 -0.20589188 0.57598478 -0.088074505 0.55718541
8877825000 0.29238194 -0.48167282 -0.17947528 0.58535385 -0.18090652 0.58441597 -0.063045844 0.55866748
8882812500 0.27444798 -0.48997849 -0.15459009 0.59254009 -0.1562061 0.5918476 -0.038802493 0.55948651
8887800000 0.25659278 -0.49757016 -0.12990916 0.59857231 -0.13154431 0.59805852 -0.014794393 0.55954123
8892787500 0.23833925 -0.50515866 -0.10490327 0.60384065 -0.10628834 0.60347855 0.010037833 0.55896896
8897775000 0.21986423 -0.51139241 -0.079680212 0.60801685 -0.081588104 0.60757613 0.03445344 0.55731529
8902762500 0.20134079 -0.51740146 -0.054577582 0.61130947 -0.056507133 0.61089754 0.059163515 0.55494606
8907750000 0.18286484 -0.52260339 -0.029250653 0.61353987 -0.030902401 0.61330903 0.084434316 0.55113661
8912737500 0.164288 -0.5273875 -0.0037441591 0.6150822 -0.0056403382 0.61494029 0.10942297 0.54602581
8917725000 0.14542876 -0.53089458 0.022185298 0.61512184 0.020006498 0.61552781 0.13408653 0.53952581
8922712500 0.12726128 -0.53418237 0.047604866 0.61491597 0.045905385 0.61534816 0.15825908 0.53147149
8927700000 0.10899298 -0.53695798 0.073570147 0.61372411 0.07183969 0.6132679 0.18173632 0.52179402
8932687500 0.091069601 -0.53910887 0.099744625 0.61129707 0.098044552 0.61118412 0.20476347 0.51117814
8937675000 0.07265389 -0.54121917 0.12604751 0.60735601 0.12433491 0.60740548 0.22625445 0.49893963
8942662500 0.054340016 -0.5426873 0.15252256 0.60243714 0.15072061 0.60254318 0.24748398 0.48617423
