!Agilent Technologies,E8362C,MY49020356,A.09.42.23
!Agilent E8362C: A.09.42.23
!Date: Friday, November 08, 2024 19:30:49
!Correction: S11(Full 2 Port(1,2)) 
!S21(Full 2 Port(1,2)) 
!S12(Full 2 Port(1,2)) 
!S22(Full 2 Port(1,2)) 
!S2P File: Measurements: S11, S21, S12, S22:
# Hz S  RI   R 50
8010000000 -0.11560178 0.58342797 0.44455847 0.28685749 0.44442683 0.2874437 -0.54340899 0.24127078
8014987500 -0.096415251 0.58448601 0.45910412 0.26667601 0.45917404 0.26663479 -0.52776158 0.26808265
8019975000 -0.076898254 0.58464122 0.4727557 0.24491926 0.47302717 0.24505234 -0.51056904 0.29383048
8024962500 -0.057288796 0.58441019 0.48563942 0.22280298 0.48557281 0.22257935 -0.49208221 0.31791481
8029950000 -0.037553076 0.58273607 0.49714318 0.199696 0.49708405 0.20003374 -0.47323948 0.34055859
8034937500 -0.018209126 0.58078182 0.50783312 0.17597835 0.50751501 0.17655113 -0.45269608 0.36213452
8039925000 0.00073134771 0.5780347 0.51744545 0.15213449 0.51695907 0.15220773 -0.43125781 0.38299251
8044912500 0.019825416 0.57397681 0.52547294 0.12689734 0.52531052 0.12768316 -0.40906182 0.402509
8049900000 0.038103007 0.56945074 0.53242391 0.10194199 0.53281915 0.1029682 -0.38631356 0.42061573
8054887500 0.056863636 0.56415963 0.53823066 0.075839177 0.5389483 0.077394597 -0.36255717 0.43762887
8059875000 0.074242182 0.55898654 0.54325777 0.05045848 0.54346484 0.052007765 -0.33760422 0.45274171
8064862500 0.091396354 0.55246609 0.54633164 0.024434492 0.54690295 0.026369547 -0.31212017 0.46667013
8069850000 0.10812701 0.5454061 0.54843849 -0.0017074795 0.54894501 7.4815529e-005 -0.28565907 0.47935131
8074837500 0.12395425 0.53826201 0.54957259 -0.027503219 0.55012959 -0.02617375 -0.25861734 0.49030381
8079825000 0.13948467 0.53050214 0.54959768 -0.053524349 0.5499562 -0.052762687 -0.23106073 0.4997018
8084812500 0.15483595 0.52224255 0.54836166 -0.079947568 0.54866397 -0.079627797 -0.2030669 0.50736606
8089800000 0.16981351 0.51362383 0.5461387 -0.10649063 0.54595107 -0.10655209 -0.1750007 0.51334423
8094787500 0.18465884 0.50423884 0.5423789 -0.13329706 0.5420922 -0.13318704 -0.14720888 0.5175249
8099775000 0.19936357 0.49446937 0.53712434 -0.16027804 0.53679419 -0.16016798 -0.11922685 0.51994383
8104762500 0.21332525 0.4841015 0.53024083 -0.18677874 0.53018767 -0.1861314 -0.092193618 0.52035522
8109750000 0.22699325 0.47328991 0.52252722 -0.21327236 0.52245426 -0.21241437 -0.065075152 0.51993608
8114737500 0.23975226 0.46170419 0.51296073 -0.23917221 0.5133692 -0.23816715 -0.038659241 0.51799583
8119725000 0.2519069 0.44929555 0.50206244 -0.26462802 0.50308788 -0.26369053 -0.012518001 0.51493841
8124712500 0.26319012 0.43710396 0.49022064 -0.28978303 0.49178877 -0.28904074 0.013557754 0.51101404
8129700000 0.27440172 0.42478147 0.47743607 -0.31439126 0.47883105 -0.31332466 0.038623933 0.50491381
8134687500 0.28413713 0.41206363 0.46321505 -0.3383002 0.46461937 -0.33709738 0.063759312 0.49773115
8139675000 0.29367393 0.39894044 0.44770133 -0.3614777 0.44951028 -0.36080351 0.087981835 0.48955709
8144662500 0.30232865 0.38557392 0.43125722 -0.38415265 0.43265319 -0.38349533 0.11185285 0.47952378
8149650000 0.31045228 0.372594 0.41361129 -0.40580514 0.41480243 -0.40545806 0.13470019 0.46812007
8154637500 0.31793746 0.35941744 0.39507332 -0.42688686 0.39581048 -0.42661265 0.15645559 0.45555153
8159625000 0.32512084 0.34622025 0.37554985 -0.447283 0.37564296 -0.44720432 0.17738779 0.44227001
8164612500 0.33206058 0.33285326 0.35429007 -0.46701634 0.35397485 -0.46691552 0.19748262 0.42733902
8169600000 0.3385686 0.31900635 0.33172235 -0.48572862 0.33182579 -0.48533019 0.21580434 0.41182774
8174587500 0.34492531 0.30563781 0.30860749 -0.50358903 0.30845416 -0.50286633 0.23290443 0.39559144
8179575000 0.35004202 0.29114568 0.28361467 -0.51962119 0.28445846 -0.51911533 0.2488288 0.3789117
8184562500 0.35446167 0.27752268 0.25824508 -0.53456378 0.25955781 -0.53422034 0.2635611 0.36141711
8189550000 0.35829526 0.26360622 0.23252782 -0.54844987 0.23399314 -0.548015 0.27741668 0.34418896
8194537500 0.36072198 0.249929 0.20595738 -0.5605945 0.20773858 -0.56076384 0.29021636 0.32651678
8199525000 0.36315218 0.23592201 0.17799594 -0.57201934 0.18053699 -0.57202542 0.30230924 0.30814314
8204512500 0.36423111 0.22313236 0.15067427 -0.58175147 0.1526088 -0.58209985 0.3132771 0.28919852
8209500000 0.36501017 0.21025243 0.1221596 -0.59028465 0.12388302 -0.59078556 0.32297555 0.26946643
8214487500 0.36515686 0.19738051 0.092986085 -0.59734625 0.094601132 -0.59763145 0.3315255 0.24952069
8219475000 0.36483872 0.18527061 0.063621432 -0.60313296 0.065056235 -0.60331935 0.33859241 0.22933382
8224462500 0.36421147 0.17361259 0.034290671 -0.60767186 0.035225887 -0.6077255 0.34451774 0.20938362
8229450000 0.36320242 0.16231807 0.0047296099 -0.61050153 0.0048963972 -0.61053222 0.34902313 0.18939292
8234437500 0.36215845 0.15081288 -0.025698513 -0.61165434 -0.025082132 -0.61162984 0.35160881 0.169678
8239425000 0.36090511 0.1394107 -0.056334909 -0.61163121 -0.055833425 -0.6111244 0.35322443 0.15033816
8244412500 0.35949278 0.12798858 -0.087016113 -0.609918 -0.086396992 -0.60954177 0.35387573 0.13170047
8249400000 0.35778049 0.1165364 -0.11778696 -0.60608315 -0.1171618 -0.60605061 0.35301262 0.11326804
8254387500 0.35547194 0.10528624 -0.14875585 -0.60084522 -0.14762822 -0.60117406 0.35181081 0.095799997
8259375000 0.35245079 0.094527684 -0.178773 -0.59410393 -0.17733316 -0.59469175 0.34962547 0.079020567
8264362500 0.34930131 0.084047616 -0.20880815 -0.58599448 -0.20695621 -0.58659708 0.34700742 0.062925264
8269350000 0.34530163 0.074086562 -0.23784235 -0.57586229 -0.23639952 -0.57712424 0.34390822 0.046921935
8274337500 0.34121475 0.0648176 -0.26688832 -0.56452435 -0.26539475 -0.56608891 0.34017313 0.031174712
8279325000 0.33645546 0.056095432 -0.29550728 -0.55184227 -0.293841 -0.55366576 0.33604625 0.015751237
8284312500 0.33164915 0.048057668 -0.32333887 -0.53762329 -0.32238713 -0.53892624 0.33082023 0.00062736805
8289300000 0.32711652 0.040638983 -0.35067815 -0.52216458 -0.34958991 -0.52327842 0.32498205 -0.013920594
8294287500 0.32215858 0.03384411 -0.37683767 -0.50513202 -0.37619099 -0.50607294 0.31852069 -0.027834892
8299275000 0.31753141 0.02762077 -0.40234229 -0.48733506 -0.40179092 -0.48746035 0.31128892 -0.040797401
8304262500 0.31255177 0.021669824 -0.42655692 -0.46719772 -0.42615268 -0.46748486 0.30336106 -0.052926175
8309250000 0.30809471 0.016025882 -0.45008633 -0.44656524 -0.44989717 -0.44649383 0.29534388 -0.064386658
8314237500 0.30361313 0.010455116 -0.47290131 -0.42437157 -0.47233978 -0.4242821 0.28672141 -0.074440978
8319225000 0.29866654 0.0046115648 -0.49456695 -0.40048662 -0.49366581 -0.4010902 0.27814063 -0.083680384
8324212500 0.29397765 -0.00052085257 -0.51494318 -0.37600112 -0.51383579 -0.37687793 0.26952595 -0.092239097
8329200000 0.28889763 -0.0056940555 -0.53385371 -0.34968689 -0.53317469 -0.35103157 0.26115283 -0.099937506
8334187500 0.2837168 -0.010398207 -0.55154151 -0.32326508 -0.55084991 -0.32471117 0.25285459 -0.10687225
8339175000 0.27862152 -0.014350153 -0.56745964 -0.29586154 -0.56675225 -0.29766491 0.24470328 -0.11318322
8344162500 0.27323824 -0.017973918 -0.58214343 -0.2676377 -0.58156997 -0.26967379 0.23652914 -0.11919747
8349150000 0.26816458 -0.021033345 -0.59520882 -0.23899437 -0.59546137 -0.24075849 0.2287603 -0.12469489
8354137500 0.26312184 -0.023548903 -0.60743254 -0.20933728 -0.60715014 -0.21062574 0.22091103 -0.13018993
8359125000 0.25847521 -0.025995117 -0.61803782 -0.17909285 -0.61810386 -0.18037 0.21328939 -0.13513593
8364112500 0.25410369 -0.027984254 -0.62708622 -0.14816643 -0.62707978 -0.14912792 0.20557918 -0.13974874
8369100000 0.25000909 -0.029578468 -0.63435262 -0.11715155 -0.63402951 -0.11762827 0.19791861 -0.14375025
8374087500 0.24617411 -0.03089739 -0.63966858 -0.085775338 -0.63973159 -0.086049505 0.19065338 -0.14733888
8379075000 0.24241509 -0.032578185 -0.6438297 -0.053582229 -0.64353853 -0.054135516 0.18361333 -0.15048042
8384062500 0.23902969 -0.033785507 -0.6461885 -0.021456977 -0.64588994 -0.022133911 0.17692801 -0.15343845
8389050000 0.23591833 -0.034856286 -0.64676642 0.010558181 -0.6466884 0.010016358 0.17051548 -0.15567642
8394037500 0.23292303 -0.035706494 -0.64595735 0.042705894 -0.64587986 0.041774526 0.16460061 -0.15788327
8399025000 0.23006622 -0.036753271 -0.64324391 0.0749254 -0.64318162 0.074058428 0.15904599 -0.15984204
8404012500 0.22743908 -0.037342664 -0.63884169 0.10679662 -0.63904715 0.1059762 0.15379314 -0.16175491
8409000000 0.22510812 -0.037770882 -0.63306415 0.13853313 -0.63334203 0.13746676 0.14894827 -0.16352364
8413987500 0.22289672 -0.037932381 -0.62516135 0.16983493 -0.62630242 0.16863136 0.14435044 -0.16543774
8418975000 0.22127621 -0.037976157 -0.61639816 0.20052809 -0.61720729 0.19937807 0.14001933 -0.16716109
8423962500 0.21978591 -0.037708491 -0.60581231 0.23064566 -0.60672247 0.22946474 0.13575195 -0.16923811
8428950000 0.21844961 -0.037457284 -0.59379971 0.25996849 -0.59458447 0.25941816 0.13190763 -0.17148055
8433937500 0.21763115 -0.037100978 -0.58019829 0.28929329 -0.58117574 0.28839669 0.12800172 -0.17379238
8438925000 0.21701284 -0.0368983 -0.56532788 0.31756949 -0.56612921 0.31688362 0.12436081 -0.17629173
8443912500 0.21678665 -0.036765337 -0.54925233 0.34519339 -0.54979438 0.34480733 0.12074683 -0.17904609
8448900000 0.21660459 -0.036613565 -0.53120691 0.37159583 -0.53174084 0.37120715 0.11731475 -0.18161708
8453887500 0.21672037 -0.036641385 -0.51241654 0.3971079 -0.51259232 0.39697534 0.11399189 -0.18456674
8458875000 0.21681571 -0.036603089 -0.49203494 0.42155448 -0.49222222 0.42095086 0.11083094 -0.18771157
8463862500 0.21761811 -0.03658957 -0.47094059 0.44506869 -0.4708479 0.44478342 0.10773261 -0.19161564
8468850000 0.2184691 -0.036902215 -0.4482761 0.4670518 -0.44843674 0.46660089 0.10446607 -0.19508463
8473837500 0.21969603 -0.037514884 -0.42459193 0.48856592 -0.42492449 0.48811775 0.10109163 -0.19919115
8478825000 0.22113536 -0.038267702 -0.3997854 0.50895149 -0.4002845 0.50803238 0.097528271 -0.20347208
8483812500 0.2229808 -0.038968701 -0.37403375 0.5271613 -0.37479538 0.52689165 0.093901381 -0.2077356
8488800000 0.22498924 -0.040310167 -0.34705606 0.5444243 -0.34851995 0.54418355 0.090066329 -0.21229793
8493787500 0.22739461 -0.041799106 -0.31979659 0.56019962 -0.32094809 0.56012005 0.085894406 -0.21675539
8498775000 0.23004436 -0.043770056 -0.29188919 0.5745756 -0.29322368 0.57441777 0.081756443 -0.22160304
8503762500 0.23265371 -0.045385048 -0.26359358 0.5876193 -0.2648797 0.58763182 0.077239059 -0.22653329
8508750000 0.23540163 -0.047673088 -0.23485696 0.59922552 -0.23595391 0.59932673 0.072393656 -0.23193456
8513737500 0.23809366 -0.05002448 -0.20490694 0.60946667 -0.20573401 0.60917521 0.066961445 -0.237095
8518725000 0.24091913 -0.052369621 -0.17507178 0.6177637 -0.17559335 0.61808878 0.061187174 -0.24281637
8523712500 0.24382998 -0.055142384 -0.14469142 0.62499857 -0.14507788 0.62504375 0.054813791 -0.24865229
8528700000 0.24661979 -0.058032881 -0.1140264 0.63006794 -0.11451583 0.63018209 0.048277579 -0.25426364
8533687500 0.24987559 -0.061083015 -0.083595529 0.6341809 -0.083978608 0.63389987 0.040998086 -0.25990772
8538675000 0.25294584 -0.064112067 -0.053132862 0.63628638 -0.053148311 0.63593286 0.033026744 -0.26571953
8543662500 0.2565321 -0.067754462 -0.022655468 0.6375249 -0.023064421 0.63718289 0.024960669 -0.27142006
8548650000 0.25984219 -0.071910448 0.0077871378 0.63676685 0.0072976802 0.63676447 0.016040545 -0.27672869
8553637500 0.26357967 -0.076565184 0.038354866 0.63485628 0.037470136 0.6350652 0.0069660153 -0.28192654
8558625000 0.26694965 -0.082008779 0.06892354 0.63155937 0.06806618 0.63144904 -0.0031283456 -0.28657836
8563612500 0.27014616 -0.087999396 0.099418044 0.62597686 0.098133765 0.62678307 -0.013262528 -0.29097643
8568600000 0.27294096 -0.094537243 0.12932603 0.61933708 0.12776728 0.62035733 -0.023708694 -0.29500338
8573587500 0.2758314 -0.10081302 0.1577334 0.6119014 0.15693982 0.61266428 -0.034790043 -0.29901752
8578575000 0.27823105 -0.10789585 0.18638143 0.60259569 0.18534255 0.60355049 -0.045875121 -0.30235717
8583562500 0.28036553 -0.11487576 0.21438201 0.59215707 0.21350478 0.59293354 -0.057864837 -0.30565745
8588550000 0.28217733 -0.12205052 0.24179888 0.580365 0.24115855 0.58064055 -0.070306391 -0.30829504
8593537500 0.28366765 -0.12958275 0.26862898 0.5669505 0.26841652 0.56712168 -0.083570652 -0.31037372
8598525000 0.28538591 -0.13721459 0.2949926 0.55248737 0.29461139 0.55273539 -0.097449906 -0.31204471
8603512500 0.28687644 -0.1447227 0.31988969 0.53692824 0.31970015 0.53675503 -0.11152885 -0.31308538
8608500000 0.2885271 -0.15272099 0.34382921 0.52018452 0.34349549 0.51991564 -0.12583208 -0.31327844
8613487500 0.28977063 -0.16060169 0.36671311 0.50251579 0.36620718 0.50232273 -0.14039665 -0.312828
8618475000 0.29126859 -0.1694748 0.38900563 0.48391762 0.38814229 0.48382273 -0.15534699 -0.31142566
8623462500 0.29230168 -0.17853373 0.41001752 0.46396592 0.40894586 0.46478561 -0.17027141 -0.30920365
8628450000 0.29315409 -0.18840675 0.4305045 0.44349599 0.42967102 0.44449332 -0.18553728 -0.30612445
8633437500 0.29303914 -0.19860481 0.44975281 0.42183349 0.44872808 0.42327195 -0.20040078 -0.30218306
8638425000 0.29258308 -0.20905276 0.46788973 0.39936635 0.46722895 0.40137416 -0.21517196 -0.29743153
8643412500 0.29143667 -0.21982737 0.48497093 0.37638441 0.48428491 0.37832543 -0.22994022 -0.29182434
8648400000 0.28968921 -0.23037417 0.50081486 0.35291451 0.50050193 0.35466474 -0.24469325 -0.28583089
8653387500 0.28722501 -0.24077392 0.5155763 0.32901677 0.51493251 0.33012784 -0.25941038 -0.27896574
8658375000 0.28407127 -0.25082308 0.52882177 0.30385125 0.52861273 0.3049325 -0.27457082 -0.27132362
8663362500 0.28084135 -0.2606715 0.54120606 0.27898729 0.54100519 0.27930391 -0.28976154 -0.2628881
8668350000 0.27715927 -0.27042732 0.5521915 0.25324938 0.55173284 0.25362095 -0.3046214 -0.2536993
8673337500 0.27314323 -0.28030244 0.56197143 0.2270733 0.56174999 0.22724365 -0.31964436 -0.24317601
8678325000 0.26871085 -0.28999126 0.57023406 0.20084085 0.5699082 0.2011153 -0.33389878 -0.23207727
8683312500 0.26446682 -0.30023921 0.57761604 0.17433293 0.5768646 0.17444097 -0.34785855 -0.21964744
8688300000 0.25938392 -0.31017017 0.58323503 0.14764521 0.58236682 0.14813069 -0.36112753 -0.20651253
8693287500 0.25387669 -0.32051104 0.58788913 0.12066389 0.58711082 0.12178375 -0.37403935 -0.19255848
8698275000 0.24810104 -0.33119872 0.59100574 0.093953438 0.59084439 0.095392682 -0.38554445 -0.17785372
8703262500 0.24149692 -0.34229419 0.59351254 0.066794612 0.59383428 0.068793476 -0.39690951 -0.16234234
8708250000 0.23446749 -0.35350969 0.59482515 0.039903916 0.59502846 0.041948352 -0.40671813 -0.14623845
8713237500 0.22650583 -0.36420399 0.59458947 0.012956972 0.59510076 0.014701346 -0.41603851 -0.12937365
8718225000 0.21780354 -0.37504524 0.59336954 -0.014034471 0.59423542 -0.012652605 -0.42472491 -0.11221986
8723212500 0.20893222 -0.38528711 0.59095585 -0.04079837 0.59161901 -0.039178845 -0.43239024 -0.094637759
8728200000 0.1997716 -0.39472148 0.58731484 -0.067034818 0.58777696 -0.065710247 -0.43974569 -0.076517753
8733187500 0.19016677 -0.40376997 0.58234018 -0.092783749 0.58293015 -0.09216579 -0.4464148 -0.057801966
8738175000 0.18056628 -0.41232789 0.57637519 -0.11847154 0.5764727 -0.11750805 -0.45226291 -0.03842245
8743162500 0.17056765 -0.42016727 0.56928998 -0.14363813 0.56937307 -0.14293948 -0.45769262 -0.018355491
8748150000 0.160597 -0.42767566 0.56094754 -0.16822778 0.5610497 -0.16762169 -0.46208289 0.0024454151
8753137500 0.15043065 -0.43479741 0.55202663 -0.1921598 0.55203021 -0.19182897 -0.46572429 0.023609316
8758125000 0.13990688 -0.44194791 0.54205525 -0.21548089 0.54185671 -0.21511582 -0.46779203 0.044914685
8763112500 0.12851921 -0.44873798 0.53058475 -0.23894016 0.53096539 -0.23784786 -0.46871623 0.066702791
8768100000 0.11678861 -0.45529914 0.51877594 -0.26148674 0.5193159 -0.26001117 -0.46858135 0.088523693
8773087500 0.10486272 -0.46116287 0.50581235 -0.28315505 0.50661868 -0.28151008 -0.46675384 0.11034408
8778075000 0.091914594 -0.46732473 0.49202803 -0.30447653 0.49332982 -0.30318365 -0.46406043 0.13186266
8783062500 0.078293249 -0.47297433 0.47753361 -0.32538116 0.4787859 -0.32411638 -0.46010646 0.15328564
8788050000 0.064299159 -0.47841352 0.46185315 -0.34582824 0.46340775 -0.34457549 -0.45495045 0.17468902
8793037500 0.049772307 -0.48295119 0.44506407 -0.3653082 0.44694263 -0.36426881 -0.44881511 0.19572622
8798025000 0.035150219 -0.48729107 0.42787126 -0.38413271 0.42942044 -0.38318494 -0.44164684 0.21641973
8803012500 0.020524221 -0.49114799 0.40990084 -0.40148658 0.41117668 -0.40079477 -0.43357468 0.23649898
8808000000 0.0060395501 -0.49435294 0.39140236 -0.41828248 0.3922742 -0.41770706 -0.42470944 0.25702181
8812987500 -0.0083790757 -0.49700308 0.3723385 -0.43387496 0.37330323 -0.43344152 -0.41530973 0.27699512
8817975000 -0.022578344 -0.49923402 0.35278398 -0.44879052 0.35328096 -0.4482412 -0.4044871 0.29708216
8822962500 -0.036594279 -0.5010305 0.33283618 -0.46270335 0.33331329 -0.46185812 -0.39284858 0.31667852
8827950000 -0.050615713 -0.50211966 0.31226653 -0.47550455 0.31277847 -0.47488299 -0.37990209 0.33614597
8832937500 -0.065100715 -0.50317007 0.29102436 -0.48797598 0.29185537 -0.4869898 -0.36580995 0.35494399
8837925000 -0.079666115 -0.50351453 0.26928875 -0.49921215 0.27085078 -0.49842 -0.35061657 0.3730742
8842912500 -0.0937801 -0.5033555 0.24764073 -0.50963342 0.24952435 -0.50889146 -0.33448395 0.39020577
8847900000 -0.10816998 -0.5023666 0.22528037 -0.51904845 0.22733787 -0.51862568 -0.3170808 0.40638846
8852887500 -0.12283857 -0.501041 0.20276906 -0.52775562 0.20484957 -0.52774149 -0.29908866 0.4217366
8857875000 -0.13762358 -0.49891046 0.17980313 -0.53557867 0.18167935 -0.5357452 -0.28028831 0.43577805
8862862500 -0.15278426 -0.49631363 0.15616776 -0.54264778 0.15797731 -0.54271138 -0.26058418 0.44914564
8867850000 -0.1677442 -0.49282116 0.13220264 -0.54822803 0.13405611 -0.54852349 -0.2404377 0.46153447
8872837500 -0.18332689 -0.48899329 0.10794862 -0.5530259 0.109441 -0.55318511 -0.2194301 0.47299403
8877825000 -0.19809969 -0.48454306 0.083855972 -0.55655551 0.085072748 -0.55638433 -0.19807406 0.48323107
8882812500 -0.21279106 -0.47933388 0.06004142 -0.55881321 0.061351005 -0.55860835 -0.17695561 0.49260667
8887800000 -0.22668017 -0.4739545 0.036931347 -0.55986834 0.037826668 -0.55971664 -0.15522023 0.50117332
8892787500 -0.24117757 -0.46858826 0.013334732 -0.56031382 0.014188654 -0.56011969 -0.13285784 0.50917226
8897775000 -0.25509647 -0.46233952 -0.010025585 -0.5597561 -0.0090009263 -0.55956948 -0.10985903 0.51646125
8902762500 -0.26892656 -0.4557645 -0.033188071 -0.55830604 -0.032228965 -0.55816793 -0.086409278 0.52264017
8907750000 -0.28303805 -0.44879144 -0.056818578 -0.55604041 -0.055445954 -0.55611014 -0.062027566 0.52769202
8912737500 -0.29682225 -0.44155428 -0.080418088 -0.55290735 -0.07856787 -0.5534426 -0.037214126 0.53148198
8917725000 -0.30998126 -0.43336996 -0.10367537 -0.54864675 -0.10155182 -0.54957795 -0.012338453 0.53361201
8922712500 -0.32286447 -0.42513099 -0.12680167 -0.54382694 -0.12477442 -0.54476494 0.012522627 0.53405267
8927700000 -0.33517295 -0.41694838 -0.14959528 -0.53819031 -0.14748564 -0.53867018 0.037307642 0.53321403
8932687500 -0.34675047 -0.40815008 -0.17202951 -0.53114688 -0.17045842 -0.53218746 0.062063187 0.53122598
8937675000 -0.35931975 -0.39909503 -0.19481455 -0.52354646 -0.19319834 -0.52426237 0.086271822 0.5274266
8942662500 -0.3707405 -0.38962403 -0.21705399 -0.51456255 -0.21566336 -0.51524329 0.1106414 0.52265537
